cycle number	time/s	freq/Hz	Re(Z)/Ohm	-Im(Z)/Ohm	|Z|/Ohm	Phase(Z)/deg	
1.000000000000000E+000	1.444498175260378E+000	1.0000186E+006	5.5539911E+002	8.1400220E+002	9.8542773E+002	-5.5694023E+001
1.000000000000000E+000	1.878478009166429E+000	7.9433269E+005	6.2566870E+002	7.6700781E+002	9.8982941E+002	-5.0794960E+001
1.000000000000000E+000	2.312495309830410E+000	6.3095681E+005	6.8410510E+002	7.8968719E+002	1.0447993E+003	-4.9097652E+001
1.000000000000000E+000	2.747494103823556E+000	5.0120622E+005	7.8714642E+002	8.4518726E+002	1.1549636E+003	-4.7036404E+001
1.000000000000000E+000	3.182490871142363E+000	3.9810347E+005	8.8248871E+002	9.1375604E+002	1.2703292E+003	-4.5997250E+001
1.000000000000000E+000	3.616480651748134E+000	3.1622997E+005	1.0087813E+003	1.0020010E+003	1.4218458E+003	-4.4806801E+001
1.000000000000000E+000	4.050493872346124E+000	2.5118766E+005	1.1456051E+003	1.0781853E+003	1.5731798E+003	-4.3263466E+001
1.000000000000000E+000	4.484477012971183E+000	1.9954350E+005	1.3016992E+003	1.1992705E+003	1.7699352E+003	-4.2654724E+001
1.000000000000000E+000	4.919493940280518E+000	1.5848613E+005	1.4446665E+003	1.3077341E+003	1.9486482E+003	-4.2151875E+001
1.000000000000000E+000	5.353482067555888E+000	1.2590930E+005	1.6462008E+003	1.4095730E+003	2.1672271E+003	-4.0572063E+001
1.000000000000000E+000	5.787492168223253E+000	1.0000371E+005	1.8604065E+003	1.5314653E+003	2.4096677E+003	-3.9460819E+001
1.000000000000000E+000	6.222476375551196E+000	7.9433273E+004	2.0247386E+003	1.6596006E+003	2.6179841E+003	-3.9340157E+001
1.000000000000000E+000	6.656494582799496E+000	6.3093824E+004	2.2583987E+003	1.7924438E+003	2.8832654E+003	-3.8438297E+001
1.000000000000000E+000	7.090493083436741E+000	5.0122477E+004	2.4450730E+003	1.9209808E+003	3.1094292E+003	-3.8155083E+001
1.000000000000000E+000	7.525477770745056E+000	3.9814059E+004	2.6823003E+003	2.1208245E+003	3.4194490E+003	-3.8332497E+001
1.000000000000000E+000	7.819495944684604E+000	3.1621139E+004	2.9788750E+003	2.2530774E+003	3.7349771E+003	-3.7102104E+001
1.000000000000000E+000	8.253482551983325E+000	2.5116910E+004	3.3250522E+003	2.5679182E+003	4.2012114E+003	-3.7678696E+001
1.000000000000000E+000	8.547490192606347E+000	1.9948785E+004	3.6099890E+003	2.8761680E+003	4.6156650E+003	-3.8545204E+001
1.000000000000000E+000	9.012487308034906E+000	1.5847683E+004	3.8943201E+003	3.0998357E+003	4.9774199E+003	-3.8519402E+001
1.000000000000000E+000	9.446488821966341E+000	1.2590930E+004	4.2789033E+003	3.4669263E+003	5.5071401E+003	-3.9015675E+001
1.000000000000000E+000	9.740496809274191E+000	1.0002226E+004	4.6567734E+003	3.8485745E+003	6.0412798E+003	-3.9571915E+001
1.000000000000000E+000	1.007500970520778E+001	7.9439990E+003	5.1493940E+003	4.2682788E+003	6.6883828E+003	-3.9654980E+001
1.000000000000000E+000	1.047153023068677E+001	6.3077339E+003	5.7325293E+003	4.8470928E+003	7.5070767E+003	-4.0215916E+001
1.000000000000000E+000	1.094068457301182E+001	5.0116040E+003	6.2905410E+003	5.1952734E+003	8.1585396E+003	-3.9552845E+001
1.000000000000000E+000	1.140868147523724E+001	3.9812744E+003	6.4266431E+003	5.7441343E+003	8.6195605E+003	-4.1790348E+001
1.000000000000000E+000	1.187570435075759E+001	3.1610117E+003	7.5590000E+003	6.8648442E+003	1.0211002E+004	-4.2244732E+001
1.000000000000000E+000	1.234370178631798E+001	2.5108032E+003	8.4482490E+003	7.6191069E+003	1.1376454E+004	-4.2045921E+001
1.000000000000000E+000	1.280967346178659E+001	1.9956388E+003	9.3359502E+003	8.5135283E+003	1.2634878E+004	-4.2361938E+001
1.000000000000000E+000	1.327667601729627E+001	1.5855074E+003	1.0397684E+004	9.8733145E+003	1.4338555E+004	-4.3518204E+001
1.000000000000000E+000	1.374492958618794E+001	1.2587913E+003	1.1603043E+004	1.0435953E+004	1.5605759E+004	-4.1968697E+001
1.000000000000000E+000	1.421070782165771E+001	1.0003202E+003	1.2939555E+004	1.2298146E+004	1.7851512E+004	-4.3544155E+001
2.000000000000000E+000	1.357292932088894E+002	1.0000186E+006	5.3191595E+002	8.5329321E+002	1.0055068E+003	-5.8061893E+001
2.000000000000000E+000	1.361632786694972E+002	7.9433269E+005	6.1495142E+002	8.2406299E+002	1.0282242E+003	-5.3268108E+001
2.000000000000000E+000	1.365972941567597E+002	6.3095681E+005	7.0498761E+002	8.6238239E+002	1.1138721E+003	-5.0734398E+001
2.000000000000000E+000	1.370312956173730E+002	5.0120622E+005	8.0028369E+002	9.2585004E+002	1.2237860E+003	-4.9160610E+001
2.000000000000000E+000	1.374652724113257E+002	3.9810347E+005	9.2192462E+002	1.0022734E+003	1.3617992E+003	-4.7391113E+001
2.000000000000000E+000	1.378992850453069E+002	3.1622997E+005	1.0485319E+003	1.0980731E+003	1.5182831E+003	-4.6322086E+001
2.000000000000000E+000	1.383342747192655E+002	2.5118766E+005	1.1939773E+003	1.2029633E+003	1.6949048E+003	-4.5214798E+001
2.000000000000000E+000	1.387682931399031E+002	1.9954350E+005	1.3749980E+003	1.3316543E+003	1.9141376E+003	-4.4082558E+001
2.000000000000000E+000	1.392022934805427E+002	1.5848613E+005	1.5532767E+003	1.4296556E+003	2.1110623E+003	-4.2626862E+001
2.000000000000000E+000	1.396372895278328E+002	1.2590930E+005	1.6974020E+003	1.5836945E+003	2.3214783E+003	-4.3015190E+001
2.000000000000000E+000	1.400712883217784E+002	1.0000371E+005	1.9522775E+003	1.7145256E+003	2.5982659E+003	-4.1290192E+001
2.000000000000000E+000	1.405052797557146E+002	7.9433273E+004	2.1681704E+003	1.7748101E+003	2.8019482E+003	-3.9302895E+001
2.000000000000000E+000	1.409392904697161E+002	6.3093824E+004	2.4250212E+003	2.0509250E+003	3.1760071E+003	-4.0222366E+001
2.000000000000000E+000	1.413742797436717E+002	5.0122477E+004	2.7022166E+003	2.1797319E+003	3.4717727E+003	-3.8891239E+001
2.000000000000000E+000	1.418082957376319E+002	3.9814059E+004	2.9469910E+003	2.3583535E+003	3.7744651E+003	-3.8668827E+001
2.000000000000000E+000	1.421022852715978E+002	3.1621139E+004	3.2283743E+003	2.6612668E+003	4.1838667E+003	-3.9500004E+001
2.000000000000000E+000	1.425362776922120E+002	2.5116910E+004	3.6040391E+003	2.8890920E+003	4.6190854E+003	-3.8716576E+001
2.000000000000000E+000	1.430012782476551E+002	1.9948785E+004	3.9198499E+003	3.1297957E+003	5.0160586E+003	-3.8605541E+001
2.000000000000000E+000	1.432952944482386E+002	1.5847683E+004	4.2749531E+003	3.4890625E+003	5.5180415E+003	-3.9220085E+001
2.000000000000000E+000	1.437302870555723E+002	1.2590930E+004	4.6756348E+003	3.8450203E+003	6.0535728E+003	-3.9432255E+001
2.000000000000000E+000	1.440252758696151E+002	1.0002226E+004	5.1320610E+003	4.2923853E+003	6.6904873E+003	-3.9908646E+001
2.000000000000000E+000	1.443597952455166E+002	7.9439990E+003	5.7007363E+003	4.8024980E+003	7.4540181E+003	-4.0111950E+001
2.000000000000000E+000	1.447563565442979E+002	6.3077339E+003	6.3067500E+003	5.2389365E+003	8.1988750E+003	-3.9715981E+001
2.000000000000000E+000	1.452254685399894E+002	5.0116040E+003	6.9626953E+003	5.7670200E+003	9.0408877E+003	-3.9634071E+001
2.000000000000000E+000	1.456934656822195E+002	3.9812744E+003	6.9223398E+003	6.7056782E+003	9.6376816E+003	-4.4089176E+001
2.000000000000000E+000	1.461604849044015E+002	3.1610117E+003	8.5078525E+003	7.3237896E+003	1.1225928E+004	-4.0722759E+001
2.000000000000000E+000	1.466274627132443E+002	2.5108032E+003	9.7079326E+003	8.3951660E+003	1.2834437E+004	-4.0852394E+001
2.000000000000000E+000	1.470944784954263E+002	1.9956388E+003	1.0536308E+004	9.4581172E+003	1.4158734E+004	-4.1913342E+001
2.000000000000000E+000	1.475615095042740E+002	1.5855074E+003	1.1349110E+004	1.0391144E+004	1.5387598E+004	-4.2476940E+001
2.000000000000000E+000	1.480297568865062E+002	1.2587913E+003	1.2549018E+004	1.1549185E+004	1.7054662E+004	-4.2624165E+001
2.000000000000000E+000	1.484954712553081E+002	1.0003202E+003	1.4471959E+004	1.3398740E+004	1.9722166E+004	-4.2794796E+001
3.000000000000000E+000	2.698660934888467E+002	1.0000186E+006	5.3702710E+002	9.2871539E+002	1.0728049E+003	-5.9961472E+001
3.000000000000000E+000	2.703000939094636E+002	7.9433269E+005	6.1605487E+002	8.9932880E+002	1.0900990E+003	-5.5588223E+001
3.000000000000000E+000	2.707340773967153E+002	6.3095681E+005	7.3434271E+002	9.2757819E+002	1.1830725E+003	-5.1632137E+001
3.000000000000000E+000	2.711680728840001E+002	5.0120622E+005	8.2711255E+002	1.0075502E+003	1.3035615E+003	-5.0616932E+001
3.000000000000000E+000	2.716020879446587E+002	3.9810347E+005	9.5248529E+002	1.0978479E+003	1.4534436E+003	-4.9055317E+001
3.000000000000000E+000	2.720370771652961E+002	3.1622997E+005	1.1032421E+003	1.2136937E+003	1.6401815E+003	-4.7729309E+001
3.000000000000000E+000	2.724710926525586E+002	2.5118766E+005	1.2534739E+003	1.3109720E+003	1.8137928E+003	-4.6284431E+001
3.000000000000000E+000	2.729050682198431E+002	1.9954350E+005	1.4412682E+003	1.4783491E+003	2.0646477E+003	-4.5727654E+001
3.000000000000000E+000	2.733390885338013E+002	1.5848613E+005	1.6589038E+003	1.5995863E+003	2.3044822E+003	-4.3957104E+001
3.000000000000000E+000	2.737730754610675E+002	1.2590930E+005	1.8677401E+003	1.7114799E+003	2.5333015E+003	-4.2500191E+001
3.000000000000000E+000	2.742070842283720E+002	1.0000371E+005	2.0878892E+003	1.8888175E+003	2.8154773E+003	-4.2134201E+001
3.000000000000000E+000	2.746410923289659E+002	7.9433273E+004	2.3483984E+003	2.0088219E+003	3.0903625E+003	-4.0543705E+001
3.000000000000000E+000	2.750760780296114E+002	6.3093824E+004	2.6486682E+003	2.2014788E+003	3.4441184E+003	-3.9732155E+001
3.000000000000000E+000	2.755100757035834E+002	5.0122477E+004	2.9026243E+003	2.3935815E+003	3.7622415E+003	-3.9509903E+001
3.000000000000000E+000	2.759440877508896E+002	3.9814059E+004	3.1588457E+003	2.5615762E+003	4.0669373E+003	-3.9039345E+001
3.000000000000000E+000	2.762380770181480E+002	3.1621139E+004	3.4812903E+003	2.8535623E+003	4.5013555E+003	-3.9340969E+001
3.000000000000000E+000	2.769830819602066E+002	2.5116910E+004	3.8858149E+003	3.1289851E+003	4.9889985E+003	-3.8842152E+001
3.000000000000000E+000	2.774170841141895E+002	1.9948785E+004	4.2339199E+003	3.4155149E+003	5.4398364E+003	-3.8893215E+001
3.000000000000000E+000	2.778510931480851E+002	1.5847683E+004	4.7214751E+003	3.8024519E+003	6.0622578E+003	-3.8846317E+001
3.000000000000000E+000	2.781450865220686E+002	1.2590930E+004	5.0795962E+003	4.1921045E+003	6.5860488E+003	-3.9532276E+001
3.000000000000000E+000	2.785790795560170E+002	1.0002226E+004	5.5783633E+003	4.6053950E+003	7.2337959E+003	-3.9542458E+001
3.000000000000000E+000	2.789135953852674E+002	7.9439990E+003	6.2233657E+003	5.1876387E+003	8.1019673E+003	-3.9813721E+001
3.000000000000000E+000	2.793101589507714E+002	6.3077339E+003	6.9372339E+003	5.8791162E+003	9.0933613E+003	-4.0280365E+001
3.000000000000000E+000	2.797792699064084E+002	5.0116040E+003	7.7188857E+003	6.1713516E+003	9.8826504E+003	-3.8642799E+001
3.000000000000000E+000	2.802462961952624E+002	3.9812744E+003	7.9117021E+003	7.7881230E+003	1.1101797E+004	-4.4549015E+001
3.000000000000000E+000	2.807142997108240E+002	3.1610117E+003	9.4093584E+003	8.0208311E+003	1.2364051E+004	-4.0445309E+001
3.000000000000000E+000	2.811813005063377E+002	2.5108032E+003	9.8628076E+003	9.2825557E+003	1.3544032E+004	-4.3264030E+001
3.000000000000000E+000	2.816483014618498E+002	1.9956388E+003	1.0987620E+004	1.0184562E+004	1.4981759E+004	-4.2827820E+001
3.000000000000000E+000	2.821162808174122E+002	1.5855074E+003	1.2615993E+004	1.1590799E+004	1.7132131E+004	-4.2574886E+001
3.000000000000000E+000	2.825845521462907E+002	1.2587913E+003	1.3925978E+004	1.2580468E+004	1.8767020E+004	-4.2094070E+001
3.000000000000000E+000	2.830502671017748E+002	1.0003202E+003	1.6198979E+004	1.4378763E+004	2.1660004E+004	-4.1593346E+001
4.000000000000000E+000	4.045688888890145E+002	1.0000186E+006	5.3991882E+002	9.8952203E+002	1.1272383E+003	-6.1381531E+001
4.000000000000000E+000	4.050028758695989E+002	7.9433269E+005	6.2877393E+002	9.5079797E+002	1.1399006E+003	-5.6522865E+001
4.000000000000000E+000	4.054378863969760E+002	6.3095681E+005	7.3191113E+002	9.9123248E+002	1.2321671E+003	-5.3558399E+001
4.000000000000000E+000	4.058718824175594E+002	5.0120622E+005	8.4387970E+002	1.0741683E+003	1.3660054E+003	-5.1846390E+001
4.000000000000000E+000	4.063058719848341E+002	3.9810347E+005	9.7021838E+002	1.1602285E+003	1.5124331E+003	-5.0096607E+001
4.000000000000000E+000	4.067398678987811E+002	3.1622997E+005	1.1320753E+003	1.2866025E+003	1.7137505E+003	-4.8655609E+001
4.000000000000000E+000	4.071738762660825E+002	2.5118766E+005	1.2893982E+003	1.4218723E+003	1.9194448E+003	-4.7797279E+001
4.000000000000000E+000	4.076078663667140E+002	1.9954350E+005	1.5250432E+003	1.5664357E+003	2.1862017E+003	-4.5767101E+001
4.000000000000000E+000	4.080428767606791E+002	1.5848613E+005	1.7177628E+003	1.7054176E+003	2.4205698E+003	-4.4793369E+001
4.000000000000000E+000	4.084768736613041E+002	1.2590930E+005	1.9465405E+003	1.8077314E+003	2.6564851E+003	-4.2882530E+001
4.000000000000000E+000	4.089108705619292E+002	1.0000371E+005	2.2199595E+003	2.0240302E+003	3.0041501E+003	-4.2356743E+001
4.000000000000000E+000	4.093448866092076E+002	7.9433273E+004	2.4455659E+003	2.1481726E+003	3.2550635E+003	-4.1295906E+001
4.000000000000000E+000	4.097798709764902E+002	6.3093824E+004	2.7715413E+003	2.4348203E+003	3.6891450E+003	-4.1299557E+001
4.000000000000000E+000	4.102148873438418E+002	5.0122477E+004	3.0234026E+003	2.6138281E+003	3.9966311E+003	-4.0844463E+001
4.000000000000000E+000	4.106488870978064E+002	3.9814059E+004	3.3633862E+003	2.8289690E+003	4.3949326E+003	-4.0067440E+001
4.000000000000000E+000	4.109428706584440E+002	3.1621139E+004	3.6377930E+003	3.0071099E+003	4.7197720E+003	-3.9578167E+001
4.000000000000000E+000	4.116878695737978E+002	2.5116910E+004	4.0873799E+003	3.3612476E+003	5.2919429E+003	-3.9432091E+001
4.000000000000000E+000	4.121218823144154E+002	1.9948785E+004	4.5336230E+003	3.7584167E+003	5.8889248E+003	-3.9659058E+001
4.000000000000000E+000	4.125558780416904E+002	1.5847683E+004	5.0454556E+003	4.0754419E+003	6.4858188E+003	-3.8929375E+001
4.000000000000000E+000	4.128498680823541E+002	1.2590930E+004	5.5527090E+003	4.5730498E+003	7.1934248E+003	-3.9473877E+001
4.000000000000000E+000	4.131438780429598E+002	1.0002226E+004	6.1683848E+003	5.0279668E+003	7.9579785E+003	-3.9184128E+001
4.000000000000000E+000	4.134783837388968E+002	7.9439990E+003	6.7287637E+003	5.5958911E+003	8.7515859E+003	-3.9748177E+001
4.000000000000000E+000	4.138749522643338E+002	6.3077339E+003	7.2790298E+003	6.1822969E+003	9.5501348E+003	-4.0342236E+001
4.000000000000000E+000	4.143440909800192E+002	5.0116040E+003	8.1692256E+003	7.3672451E+003	1.1000570E+004	-4.2045059E+001
4.000000000000000E+000	4.148110979355406E+002	3.9812744E+003	9.6429004E+003	7.7480840E+003	1.2370058E+004	-3.8781925E+001
4.000000000000000E+000	4.152780699043869E+002	3.1610117E+003	9.9523350E+003	8.8101318E+003	1.3291629E+004	-4.1516304E+001
4.000000000000000E+000	4.157450687532328E+002	2.5108032E+003	1.0890940E+004	9.5880537E+003	1.4510112E+004	-4.1359711E+001
4.000000000000000E+000	4.162110892287019E+002	1.9956388E+003	1.2342054E+004	1.0821745E+004	1.6414520E+004	-4.1244892E+001
4.000000000000000E+000	4.166790888775940E+002	1.5855074E+003	1.3371918E+004	1.2478466E+004	1.8289896E+004	-4.3020508E+001
4.000000000000000E+000	4.171473464198061E+002	1.2587913E+003	1.5255538E+004	1.3587889E+004	2.0429443E+004	-4.1690998E+001
4.000000000000000E+000	4.176130695886241E+002	1.0003202E+003	1.6365435E+004	1.4862718E+004	2.2107189E+004	-4.2245022E+001
5.000000000000000E+000	5.391316771358543E+002	1.0000186E+006	5.4428998E+002	1.0605105E+003	1.1920294E+003	-6.2831566E+001
5.000000000000000E+000	5.395656664631388E+002	7.9433269E+005	6.4062128E+002	9.9736896E+002	1.1853862E+003	-5.7286911E+001
5.000000000000000E+000	5.399996722170908E+002	6.3095681E+005	7.2954041E+002	1.0382080E+003	1.2688992E+003	-5.4904594E+001
5.000000000000000E+000	5.404346849844151E+002	5.0120622E+005	8.4706091E+002	1.1252404E+003	1.4084310E+003	-5.3028217E+001
5.000000000000000E+000	5.408686777783732E+002	3.9810347E+005	9.9041101E+002	1.2307200E+003	1.5797423E+003	-5.1174934E+001
5.000000000000000E+000	5.413026676122972E+002	3.1622997E+005	1.1455967E+003	1.3669078E+003	1.7834878E+003	-5.0033844E+001
5.000000000000000E+000	5.417366895795858E+002	2.5118766E+005	1.3329258E+003	1.4903466E+003	1.9994559E+003	-4.8191406E+001
5.000000000000000E+000	5.421706876535609E+002	1.9954350E+005	1.5307740E+003	1.6289943E+003	2.2353728E+003	-4.6780445E+001
5.000000000000000E+000	5.426046729008376E+002	1.5848613E+005	1.7890984E+003	1.7518882E+003	2.5039939E+003	-4.4397934E+001
5.000000000000000E+000	5.430386854281242E+002	1.2590930E+005	2.0076743E+003	1.9366801E+003	2.7895315E+003	-4.3968849E+001
5.000000000000000E+000	5.434736730487493E+002	1.0000371E+005	2.2844048E+003	2.1827229E+003	3.1595544E+003	-4.3696045E+001
5.000000000000000E+000	5.439076849093835E+002	7.9433273E+004	2.4847603E+003	2.2837788E+003	3.3748599E+003	-4.2586559E+001
5.000000000000000E+000	5.443426665033621E+002	6.3093824E+004	2.8606230E+003	2.5264648E+003	3.8165676E+003	-4.1450523E+001
5.000000000000000E+000	5.447776762306748E+002	5.0122477E+004	3.1711570E+003	2.6995195E+003	4.1645698E+003	-4.0406845E+001
5.000000000000000E+000	5.452116882513219E+002	3.9814059E+004	3.5261853E+003	2.9228386E+003	4.5800620E+003	-3.9655178E+001
5.000000000000000E+000	5.458166808933893E+002	3.1621139E+004	3.9302935E+003	3.3109197E+003	5.1390073E+003	-4.0111134E+001
5.000000000000000E+000	5.462516734740639E+002	2.5116910E+004	4.2758608E+003	3.5768574E+003	5.5746655E+003	-3.9913269E+001
5.000000000000000E+000	5.466866818146955E+002	1.9948785E+004	4.7627432E+003	3.9970347E+003	6.2177173E+003	-4.0004368E+001
5.000000000000000E+000	5.471206792219600E+002	1.5847683E+004	5.3157710E+003	4.3488779E+003	6.8680537E+003	-3.9286892E+001
5.000000000000000E+000	5.474146694226365E+002	1.2590930E+004	5.8241196E+003	4.8795386E+003	7.5980435E+003	-3.9956802E+001
5.000000000000000E+000	5.477086758899095E+002	1.0002226E+004	6.4477329E+003	5.2844063E+003	8.3365586E+003	-3.9337219E+001
5.000000000000000E+000	5.480441849458730E+002	7.9439990E+003	7.1621133E+003	5.9688232E+003	9.3232354E+003	-3.9807438E+001
5.000000000000000E+000	5.484407321380277E+002	6.3077339E+003	7.9977690E+003	6.5661206E+003	1.0347862E+004	-3.9385792E+001
5.000000000000000E+000	5.489098691736799E+002	5.0116040E+003	8.3030332E+003	7.0787710E+003	1.0910975E+004	-4.0449329E+001
5.000000000000000E+000	5.493768903158634E+002	3.9812744E+003	9.8409775E+003	8.6232412E+003	1.3084538E+004	-4.1226742E+001
5.000000000000000E+000	5.498438931113778E+002	3.1610117E+003	1.0569032E+004	9.0092803E+003	1.3887821E+004	-4.0445019E+001
5.000000000000000E+000	5.503108951068934E+002	2.5108032E+003	1.1915260E+004	1.0470195E+004	1.5861854E+004	-4.1306469E+001
5.000000000000000E+000	5.507788919824525E+002	1.9956388E+003	1.3057196E+004	1.1114754E+004	1.7147248E+004	-4.0405621E+001
5.000000000000000E+000	5.512458728046331E+002	1.5855074E+003	1.4548008E+004	1.2908087E+004	1.9448990E+004	-4.1581852E+001
5.000000000000000E+000	5.517141343735275E+002	1.2587913E+003	1.5658586E+004	1.4431540E+004	2.1294615E+004	-4.2664829E+001
5.000000000000000E+000	5.521798740756640E+002	1.0003202E+003	1.8144371E+004	1.6029072E+004	2.4210521E+004	-4.1457973E+001
6.000000000000000E+000	6.735404662820802E+002	1.0000186E+006	4.7441251E+002	1.0894517E+003	1.1882643E+003	-6.6468803E+001
6.000000000000000E+000	6.739754804627446E+002	7.9433269E+005	6.3340057E+002	1.0455159E+003	1.2224155E+003	-5.8791435E+001
6.000000000000000E+000	6.744094781099993E+002	6.3095681E+005	7.4202875E+002	1.0751403E+003	1.3063435E+003	-5.5387756E+001
6.000000000000000E+000	6.748434792773041E+002	5.0120622E+005	8.6232983E+002	1.1570601E+003	1.4430526E+003	-5.3303699E+001
6.000000000000000E+000	6.752774705778866E+002	3.9810347E+005	1.0071859E+003	1.2742065E+003	1.6242000E+003	-5.1675690E+001
6.000000000000000E+000	6.757114622518711E+002	3.1622997E+005	1.1753932E+003	1.4191300E+003	1.8426826E+003	-5.0366776E+001
6.000000000000000E+000	6.761464728591673E+002	2.5118766E+005	1.3510901E+003	1.5667233E+003	2.0688320E+003	-4.9226608E+001
