time/s	cycle number	freq/Hz	Re(Z)/Ohm	-Im(Z)/Ohm	|Z|/Ohm	Phase(Z)/deg	
1.475484123366186E+000	1.000000000000000E+000	1.0000186E+006	1.8335205E+002	1.3723925E+001	1.8386496E+002	-4.2806139E+000
1.909476703993278E+000	1.000000000000000E+000	6.8129269E+005	1.6545114E+002	7.0347381E+000	1.6560063E+002	-2.4346654E+000
2.343492031301139E+000	1.000000000000000E+000	4.6415716E+005	1.6116557E+002	6.2319851E+000	1.6128601E+002	-2.2144225E+000
2.777493891917402E+000	1.000000000000000E+000	3.1622997E+005	1.5932292E+002	7.8945580E+000	1.5951839E+002	-2.8367245E+000
3.211494125862373E+000	1.000000000000000E+000	2.1544686E+005	1.5897906E+002	1.0757320E+001	1.5934259E+002	-3.8710191E+000
3.646490253187949E+000	1.000000000000000E+000	1.4677664E+005	1.5973587E+002	1.4971126E+001	1.6043591E+002	-5.3543630E+000
4.080480807140702E+000	1.000000000000000E+000	1.0000371E+005	1.6178572E+002	2.0558779E+001	1.6308673E+002	-7.2419968E+000
4.514482534403214E+000	1.000000000000000E+000	6.8132047E+004	1.6456270E+002	2.7174164E+001	1.6679124E+002	-9.3766098E+000
4.949480155046331E+000	1.000000000000000E+000	4.6420355E+004	1.6805096E+002	3.6249447E+001	1.7191611E+002	-1.2172488E+001
5.383491535700159E+000	1.000000000000000E+000	3.1621139E+004	1.7349715E+002	4.7502449E+001	1.7988258E+002	-1.5311981E+001
5.817488649598090E+000	1.000000000000000E+000	2.1544684E+004	1.7968446E+002	6.2888966E+001	1.9037209E+002	-1.9289877E+001
6.111493943579262E+000	1.000000000000000E+000	1.4678594E+004	1.8775829E+002	8.3855888E+001	2.0563313E+002	-2.4066311E+001
6.405490304197883E+000	1.000000000000000E+000	1.0002226E+004	1.9813341E+002	1.1199481E+002	2.2759544E+002	-2.9477283E+001
6.958516303828219E+000	1.000000000000000E+000	6.8110674E+003	2.1248505E+002	1.4994075E+002	2.6006177E+002	-3.5208828E+001
7.428690512868343E+000	1.000000000000000E+000	4.6414854E+003	2.3111241E+002	2.0181084E+002	3.0682333E+002	-4.1127949E+001
7.896694935094274E+000	1.000000000000000E+000	3.1610117E+003	2.5583316E+002	2.6943140E+002	3.7154257E+002	-4.6482964E+001
8.618672116055677E+000	1.000000000000000E+000	2.1556899E+003	2.8918030E+002	3.6243665E+002	4.6366537E+002	-5.1414394E+001
9.086933151615085E+000	1.000000000000000E+000	1.4685898E+003	3.2461215E+002	4.9259119E+002	5.8993146E+002	-5.6615559E+001
9.552668213749712E+000	1.000000000000000E+000	1.0003202E+003	3.7602509E+002	6.6476648E+002	7.6374689E+002	-6.0505333E+001
3.109772825693653E+002	2.000000000000000E+000	1.0000186E+006	1.7976862E+002	1.2387600E+001	1.8019492E+002	-3.9419396E+000
3.114112893365964E+002	2.000000000000000E+000	6.8129269E+005	1.6258911E+002	6.4969053E+000	1.6271887E+002	-2.2882671E+000
3.118452879438701E+002	2.000000000000000E+000	4.6415716E+005	1.5772231E+002	5.5774250E+000	1.5782089E+002	-2.0252671E+000
3.122792799111630E+002	2.000000000000000E+000	3.1622997E+005	1.5590237E+002	7.3017387E+000	1.5607327E+002	-2.6815071E+000
3.127132842517749E+002	2.000000000000000E+000	2.1544686E+005	1.5560144E+002	1.0122582E+001	1.5593036E+002	-3.7221065E+000
3.131472712857358E+002	2.000000000000000E+000	1.4677664E+005	1.5646457E+002	1.4394284E+001	1.5712529E+002	-5.2562494E+000
3.135822932530718E+002	2.000000000000000E+000	1.0000371E+005	1.5813266E+002	1.9548149E+001	1.5933633E+002	-7.0470767E+000
3.140162867136823E+002	2.000000000000000E+000	6.8132047E+004	1.6096487E+002	2.6193342E+001	1.6308214E+002	-9.2425604E+000
3.144502763342753E+002	2.000000000000000E+000	4.6420355E+004	1.6494232E+002	3.4585690E+001	1.6852934E+002	-1.1842412E+001
3.148842743815912E+002	2.000000000000000E+000	3.1621139E+004	1.6976105E+002	4.5819210E+001	1.7583575E+002	-1.5104456E+001
3.153182729888649E+002	2.000000000000000E+000	2.1544684E+004	1.7581244E+002	6.0434586E+001	1.8590953E+002	-1.8970133E+001
3.156122896694869E+002	2.000000000000000E+000	1.4678594E+004	1.8316710E+002	8.0424240E+001	2.0004561E+002	-2.3705116E+001
3.160462820101238E+002	2.000000000000000E+000	1.0002226E+004	1.9395369E+002	1.0683201E+002	2.2142970E+002	-2.8846498E+001
3.164232892280270E+002	2.000000000000000E+000	6.8110674E+003	2.0736113E+002	1.4353291E+002	2.5219107E+002	-3.4690525E+001
3.168934942903943E+002	2.000000000000000E+000	4.6414854E+003	2.2682745E+002	1.9206985E+002	2.9722302E+002	-4.0256805E+001
3.173604855925732E+002	2.000000000000000E+000	3.1610117E+003	2.4930675E+002	2.5777460E+002	3.5861066E+002	-4.5956707E+001
3.180814596534838E+002	2.000000000000000E+000	2.1556899E+003	2.7876807E+002	3.4412518E+002	4.4286993E+002	-5.0989849E+001
3.185507200490974E+002	2.000000000000000E+000	1.4685898E+003	3.1308243E+002	4.6703146E+002	5.6226239E+002	-5.6163410E+001
3.190164872978930E+002	2.000000000000000E+000	1.0003202E+003	3.5653912E+002	6.3211243E+002	7.2573157E+002	-6.0575096E+001
5.507860810930870E+002	3.000000000000000E+000	1.0000186E+006	1.7726595E+002	1.3201092E+001	1.7775681E+002	-4.2589865E+000
5.512200798870326E+002	3.000000000000000E+000	6.8129269E+005	1.6043208E+002	5.7108192E+000	1.6053369E+002	-2.0386679E+000
5.516540774009918E+002	3.000000000000000E+000	4.6415716E+005	1.5582449E+002	5.2085304E+000	1.5591151E+002	-1.9144343E+000
5.520880836349825E+002	3.000000000000000E+000	3.1622997E+005	1.5393359E+002	6.9129663E+000	1.5408875E+002	-2.5713544E+000
5.525220859489200E+002	3.000000000000000E+000	2.1544686E+005	1.5357523E+002	9.8710051E+000	1.5389212E+002	-3.6776116E+000
5.529560776495055E+002	3.000000000000000E+000	1.4677664E+005	1.5451471E+002	1.3843672E+001	1.5513362E+002	-5.1197186E+000
5.533910687635216E+002	3.000000000000000E+000	1.0000371E+005	1.5609004E+002	1.9004948E+001	1.5724277E+002	-6.9419532E+000
5.538250704907841E+002	3.000000000000000E+000	6.8132047E+004	1.5889140E+002	2.5503166E+001	1.6092511E+002	-9.1185932E+000
5.542600844581175E+002	3.000000000000000E+000	4.6420355E+004	1.6258228E+002	3.3714146E+001	1.6604108E+002	-1.1715197E+001
5.546950778654573E+002	3.000000000000000E+000	3.1621139E+004	1.6723396E+002	4.4599319E+001	1.7307887E+002	-1.4932568E+001
5.551300680727727E+002	3.000000000000000E+000	2.1544684E+004	1.7329845E+002	5.8885017E+001	1.8302950E+002	-1.8767229E+001
5.554250817134307E+002	3.000000000000000E+000	1.4678594E+004	1.8096884E+002	7.8494499E+001	1.9725899E+002	-2.3448593E+001
5.558590792540490E+002	3.000000000000000E+000	1.0002226E+004	1.9097806E+002	1.0441068E+002	2.1765617E+002	-2.8666117E+001
5.562370975386730E+002	3.000000000000000E+000	6.8110674E+003	2.0445689E+002	1.4013556E+002	2.4787213E+002	-3.4426891E+001
5.567072775344059E+002	3.000000000000000E+000	4.6414854E+003	2.2167184E+002	1.8786441E+002	2.9057089E+002	-4.0280903E+001
5.571742874232514E+002	3.000000000000000E+000	3.1610117E+003	2.4590547E+002	2.5127135E+002	3.5157758E+002	-4.5618351E+001
5.578962617242141E+002	3.000000000000000E+000	2.1556899E+003	2.7202463E+002	3.3455280E+002	4.3118787E+002	-5.0885468E+001
5.583645411864418E+002	3.000000000000000E+000	1.4685898E+003	3.1080353E+002	4.5235309E+002	5.4883710E+002	-5.5507755E+001
5.588302777685749E+002	3.000000000000000E+000	1.0003202E+003	3.5295090E+002	6.1255750E+002	7.0696606E+002	-6.0049786E+001
8.602548635641724E+002	4.000000000000000E+000	1.0000186E+006	1.7525537E+002	1.0145672E+001	1.7554880E+002	-3.3132000E+000
8.606888549981086E+002	4.000000000000000E+000	6.8129269E+005	1.5794662E+002	5.0431924E+000	1.5802711E+002	-1.8288172E+000
8.611228666987299E+002	4.000000000000000E+000	4.6415716E+005	1.5375301E+002	4.7656031E+000	1.5382684E+002	-1.7753249E+000
8.615568626926542E+002	4.000000000000000E+000	3.1622997E+005	1.5186322E+002	6.4344440E+000	1.5199947E+002	-2.4261708E+000
8.619918636999937E+002	4.000000000000000E+000	2.1544686E+005	1.5157362E+002	9.4778013E+000	1.5186966E+002	-3.5780101E+000
8.624258686805988E+002	4.000000000000000E+000	1.4677664E+005	1.5243109E+002	1.3433569E+001	1.5302188E+002	-5.0363965E+000
8.628608734212612E+002	4.000000000000000E+000	1.0000371E+005	1.5395753E+002	1.8340895E+001	1.5504616E+002	-6.7936039E+000
8.632948633085616E+002	4.000000000000000E+000	6.8132047E+004	1.5683006E+002	2.4735888E+001	1.5876880E+002	-8.9630899E+000
8.637298557025642E+002	4.000000000000000E+000	4.6420355E+004	1.6052980E+002	3.2872272E+001	1.6386093E+002	-1.1572679E+001
8.641648792698543E+002	4.000000000000000E+000	3.1621139E+004	1.6499832E+002	4.3187424E+001	1.7055673E+002	-1.4667808E+001
8.645988675571425E+002	4.000000000000000E+000	2.1544684E+004	1.7094122E+002	5.7002075E+001	1.8019472E+002	-1.8441484E+001
8.648938615445077E+002	4.000000000000000E+000	1.4678594E+004	1.7834554E+002	7.5936943E+001	1.9383897E+002	-2.3063602E+001
8.653288761518343E+002	4.000000000000000E+000	1.0002226E+004	1.8829350E+002	1.0135648E+002	2.1384007E+002	-2.8293129E+001
8.657059055030841E+002	4.000000000000000E+000	6.8110674E+003	2.0146547E+002	1.3584207E+002	2.4298438E+002	-3.3990597E+001
8.661760660854561E+002	4.000000000000000E+000	4.6414854E+003	2.1942017E+002	1.8227570E+002	2.8525363E+002	-3.9716930E+001
8.666430895209705E+002	4.000000000000000E+000	3.1610117E+003	2.4085451E+002	2.4308646E+002	3.4220157E+002	-4.5264248E+001
8.673650489152642E+002	4.000000000000000E+000	2.1556899E+003	2.7053293E+002	3.2591983E+002	4.2357031E+002	-5.0305298E+001
8.678333144841454E+002	4.000000000000000E+000	1.4685898E+003	3.0704269E+002	4.3751138E+002	5.3450110E+002	-5.4939068E+001
8.682990922129611E+002	4.000000000000000E+000	1.0003202E+003	3.4287387E+002	5.8759546E+002	6.8031677E+002	-5.9735569E+001
1.169722651021802E+003	5.000000000000000E+000	1.0000186E+006	1.7367664E+002	1.0568407E+001	1.7399789E+002	-3.4822149E+000
1.170156663415793E+003	5.000000000000000E+000	6.8129269E+005	1.5644801E+002	4.4820113E+000	1.5651221E+002	-1.6409931E+000
1.170591651009760E+003	5.000000000000000E+000	4.6415716E+005	1.5217467E+002	4.4367504E+000	1.5223933E+002	-1.6700222E+000
1.171025657670412E+003	5.000000000000000E+000	3.1622997E+005	1.5044894E+002	6.2219672E+000	1.5057755E+002	-2.3681750E+000
1.171459658917694E+003	5.000000000000000E+000	2.1544686E+005	1.5011356E+002	9.2207670E+000	1.5039648E+002	-3.5149930E+000
1.171894650058312E+003	5.000000000000000E+000	1.4677664E+005	1.5055699E+002	1.2891206E+001	1.5110788E+002	-4.8939242E+000
1.172328660985586E+003	5.000000000000000E+000	1.0000371E+005	1.5256903E+002	1.8171928E+001	1.5364742E+002	-6.7922883E+000
1.172762664792899E+003	5.000000000000000E+000	6.8132047E+004	1.5512804E+002	2.4296494E+001	1.5701920E+002	-8.9014750E+000
1.173196671400176E+003	5.000000000000000E+000	4.6420355E+004	1.5867435E+002	3.2168854E+001	1.6190239E+002	-1.1460533E+001
1.173630670727478E+003	5.000000000000000E+000	3.1621139E+004	1.6328867E+002	4.2471199E+001	1.6872163E+002	-1.4579524E+001
1.174064659788055E+003	5.000000000000000E+000	2.1544684E+004	1.6907816E+002	5.5871563E+001	1.7807036E+002	-1.8286041E+001
1.174358673828669E+003	5.000000000000000E+000	1.4678594E+004	1.7648515E+002	7.4309441E+001	1.9149126E+002	-2.2833628E+001
1.174792672595955E+003	5.000000000000000E+000	1.0002226E+004	1.8588315E+002	9.9451096E+001	2.1081523E+002	-2.8147646E+001
1.175169685840563E+003	5.000000000000000E+000	6.8110674E+003	1.9872510E+002	1.3337349E+002	2.3933272E+002	-3.3867367E+001
1.175640853596313E+003	5.000000000000000E+000	4.6414854E+003	2.1659633E+002	1.7747641E+002	2.8002115E+002	-3.9330776E+001
1.176107850151828E+003	5.000000000000000E+000	3.1610117E+003	2.3885191E+002	2.3764249E+002	3.3693350E+002	-4.4854572E+001
1.176829851279457E+003	5.000000000000000E+000	2.1556899E+003	2.6765149E+002	3.1783572E+002	4.1551999E+002	-4.9899055E+001
1.177299111781715E+003	5.000000000000000E+000	1.4685898E+003	2.9982507E+002	4.3065186E+002	5.2474384E+002	-5.5153893E+001
1.177764851057196E+003	5.000000000000000E+000	1.0003202E+003	3.4353870E+002	5.8796130E+002	6.8096796E+002	-5.9702774E+001
1.479188465759406E+003	6.000000000000000E+000	1.0000186E+006	1.7096327E+002	9.7795753E+000	1.7124275E+002	-3.2739103E+000
1.479622456233323E+003	6.000000000000000E+000	6.8129269E+005	1.5514220E+002	4.0842552E+000	1.5519595E+002	-1.5080136E+000
1.480057452387366E+003	6.000000000000000E+000	4.6415716E+005	1.5081821E+002	4.3157053E+000	1.5087994E+002	-1.6390874E+000
1.480491446167944E+003	6.000000000000000E+000	3.1622997E+005	1.4902475E+002	6.0569324E+000	1.4914778E+002	-2.3274374E+000
1.480925460348561E+003	6.000000000000000E+000	2.1544686E+005	1.4863989E+002	8.8974619E+000	1.4890594E+002	-3.4255910E+000
1.481359452075863E+003	6.000000000000000E+000	1.4677664E+005	1.4945915E+002	1.2794562E+001	1.5000580E+002	-4.8929186E+000
1.481793466043149E+003	6.000000000000000E+000	1.0000371E+005	1.5090826E+002	1.7692760E+001	1.5194189E+002	-6.6869345E+000
1.482227460223730E+003	6.000000000000000E+000	6.8132047E+004	1.5355241E+002	2.3659782E+001	1.5536450E+002	-8.7594061E+000
1.482662450057760E+003	6.000000000000000E+000	4.6420355E+004	1.5715253E+002	3.1390800E+001	1.6025697E+002	-1.1296013E+001
1.483096446398369E+003	6.000000000000000E+000	3.1621139E+004	1.6154266E+002	4.1522068E+001	1.6679362E+002	-1.4414961E+001
1.483530464178955E+003	6.000000000000000E+000	2.1544684E+004	1.6751691E+002	5.4986710E+001	1.7631067E+002	-1.8172201E+001
1.483824457712952E+003	6.000000000000000E+000	1.4678594E+004	1.7459119E+002	7.2550476E+001	1.8906522E+002	-2.2565079E+001
1.484259445546908E+003	6.000000000000000E+000	1.0002226E+004	1.8430013E+002	9.6812057E+001	2.0818048E+002	-2.7712749E+001
1.484636456844819E+003	6.000000000000000E+000	6.8110674E+003	1.9660548E+002	1.2930977E+002	2.3531836E+002	-3.3333397E+001
1.485106635613884E+003	6.000000000000000E+000	4.6414854E+003	2.1372258E+002	1.7316821E+002	2.7507193E+002	-3.9016037E+001
1.485573643396063E+003	6.000000000000000E+000	3.1610117E+003	2.3694240E+002	2.3070451E+002	3.3070572E+002	-4.4235786E+001
1.486295648363695E+003	6.000000000000000E+000	2.1556899E+003	2.6315814E+002	3.0701602E+002	4.0436499E+002	-4.9398537E+001
1.486763899852594E+003	6.000000000000000E+000	1.4685898E+003	2.9642340E+002	4.1299063E+002	5.0835822E+002	-5.4331161E+001
1.487229635901385E+003	6.000000000000000E+000	1.0003202E+003	3.3756577E+002	5.6086621E+002	6.5461560E+002	-5.8957737E+001
1.788653257803599E+003	7.000000000000000E+000	1.0000186E+006	1.7013934E+002	9.5270319E+000	1.7040587E+002	-3.2049570E+000
1.789087236197563E+003	7.000000000000000E+000	6.8129269E+005	1.5475128E+002	4.1672792E+000	1.5480739E+002	-1.5425384E+000
1.789522256644865E+003	7.000000000000000E+000	4.6415716E+005	1.4975993E+002	3.9387302E+000	1.4981172E+002	-1.5065485E+000
1.789956247518843E+003	7.000000000000000E+000	3.1622997E+005	1.4828896E+002	5.7353621E+000	1.4839983E+002	-2.2149210E+000
1.790391258526142E+003	7.000000000000000E+000	2.1544686E+005	1.4786571E+002	8.8351412E+000	1.4812943E+002	-3.4194214E+000
1.790825253800096E+003	7.000000000000000E+000	1.4677664E+005	1.4844116E+002	1.2687267E+001	1.4898236E+002	-4.8851986E+000
1.791259249127368E+003	7.000000000000000E+000	1.0000371E+005	1.5007837E+002	1.7124037E+001	1.5105214E+002	-6.5093341E+000
1.791693237841318E+003	7.000000000000000E+000	6.8132047E+004	1.5263785E+002	2.3300312E+001	1.5440602E+002	-8.6792526E+000
1.792127253088591E+003	7.000000000000000E+000	4.6420355E+004	1.5608395E+002	3.1001303E+001	1.5913290E+002	-1.1233853E+001
1.792561241775882E+003	7.000000000000000E+000	3.1621139E+004	1.6055904E+002	4.0932053E+001	1.6569441E+002	-1.4302032E+001
1.792995238516494E+003	7.000000000000000E+000	2.1544684E+004	1.6646175E+002	5.3899738E+001	1.7497055E+002	-1.7941774E+001
1.793289258477118E+003	7.000000000000000E+000	1.4678594E+004	1.7327202E+002	7.1366463E+001	1.8739360E+002	-2.2385551E+001
1.793723247671049E+003	7.000000000000000E+000	1.0002226E+004	1.8267903E+002	9.5111046E+001	2.0595567E+002	-2.7503542E+001
1.794101263928998E+003	7.000000000000000E+000	6.8110674E+003	1.9521281E+002	1.2770135E+002	2.3327168E+002	-3.3191296E+001
1.794571425178074E+003	7.000000000000000E+000	4.6414854E+003	2.1199313E+002	1.7059831E+002	2.7211188E+002	-3.8824856E+001
1.795039430400306E+003	7.000000000000000E+000	3.1610117E+003	2.3416356E+002	2.2791852E+002	3.2677121E+002	-4.4225693E+001
1.795761468594596E+003	7.000000000000000E+000	2.1556899E+003	2.6042032E+002	3.0368018E+002	4.0005048E+002	-4.9385326E+001
1.796229701550168E+003	7.000000000000000E+000	1.4685898E+003	2.9554773E+002	4.0623340E+002	5.0236844E+002	-5.3962917E+001
1.796695433065630E+003	7.000000000000000E+000	1.0003202E+003	3.3333508E+002	5.5002716E+002	6.4315021E+002	-5.8782719E+001
2.098118027527773E+003	8.000000000000000E+000	1.0000186E+006	1.6934457E+002	7.8281946E+000	1.6952541E+002	-2.6466951E+000
2.098552032855063E+003	8.000000000000000E+000	6.8129269E+005	1.5313309E+002	3.8865695E+000	1.5318240E+002	-1.4538741E+000
2.098986047249011E+003	8.000000000000000E+000	4.6415716E+005	1.4868272E+002	3.7467656E+000	1.4872992E+002	-1.4435332E+000
2.099420047109612E+003	8.000000000000000E+000	3.1622997E+005	1.4707053E+002	5.5559278E+000	1.4717543E+002	-2.1634514E+000
2.099855041370276E+003	8.000000000000000E+000	2.1544686E+005	1.4671552E+002	8.4055166E+000	1.4695610E+002	-3.2789631E+000
2.100289051977583E+003	8.000000000000000E+000	1.4677664E+005	1.4738258E+002	1.2312678E+001	1.4789601E+002	-4.7755308E+000
2.100723033304865E+003	8.000000000000000E+000	1.0000371E+005	1.4893681E+002	1.7237225E+001	1.4993097E+002	-6.6017647E+000
2.101158034845503E+003	8.000000000000000E+000	6.8132047E+004	1.5147064E+002	2.3031235E+001	1.5321159E+002	-8.6456480E+000
2.101592027026127E+003	8.000000000000000E+000	4.6420355E+004	1.5494934E+002	3.0641766E+001	1.5795004E+002	-1.1186111E+001
2.102026050913395E+003	8.000000000000000E+000	3.1621139E+004	1.5945876E+002	4.0326885E+001	1.6447903E+002	-1.4192442E+001
2.102460043654035E+003	8.000000000000000E+000	2.1544684E+004	1.6483908E+002	5.3469429E+001	1.7329427E+002	-1.7971689E+001
2.102755029454725E+003	8.000000000000000E+000	1.4678594E+004	1.7214005E+002	7.0708076E+001	1.8609628E+002	-2.2330851E+001
2.103190049368670E+003	8.000000000000000E+000	1.0002226E+004	1.8112318E+002	9.4186783E+001	2.0414886E+002	-2.7475111E+001
2.103567049173245E+003	8.000000000000000E+000	6.8110674E+003	1.9379726E+002	1.2602457E+002	2.3117000E+002	-3.3035580E+001
2.104037256048992E+003	8.000000000000000E+000	4.6414854E+003	2.0993759E+002	1.6825069E+002	2.6903918E+002	-3.8709801E+001
2.104504236364497E+003	8.000000000000000E+000	3.1610117E+003	2.3271832E+002	2.2608061E+002	3.2445380E+002	-4.4171127E+001
2.105226266478800E+003	8.000000000000000E+000	2.1556899E+003	2.5702795E+002	3.0110672E+002	3.9588968E+002	-4.9515568E+001
2.105694500394355E+003	8.000000000000000E+000	1.4685898E+003	2.9215668E+002	4.0428903E+002	4.9880371E+002	-5.4146503E+001
2.106160232976486E+003	8.000000000000000E+000	1.0003202E+003	3.2973785E+002	5.4666718E+002	6.3841370E+002	-5.8902527E+001
2.407583836425343E+003	9.000000000000000E+000	1.0000186E+006	1.6961880E+002	8.3823795E+000	1.6982581E+002	-2.8291941E+000
2.408017823352609E+003	9.000000000000000E+000	6.8129269E+005	1.5246971E+002	3.6773279E+000	1.5251405E+002	-1.3816155E+000
2.408451827159923E+003	9.000000000000000E+000	4.6415716E+005	1.4801491E+002	3.5593190E+000	1.4805769E+002	-1.3775280E+000
2.408885822780503E+003	9.000000000000000E+000	3.1622997E+005	1.4649884E+002	5.1385016E+000	1.4658893E+002	-2.0088475E+000
2.409319819841141E+003	9.000000000000000E+000	2.1544686E+005	1.4597946E+002	8.3123121E+000	1.4621593E+002	-3.2589974E+000
2.409753833621755E+003	9.000000000000000E+000	1.4677664E+005	1.4658720E+002	1.2183520E+001	1.4709265E+002	-4.7511888E+000
2.410187835055709E+003	9.000000000000000E+000	1.0000371E+005	1.4828583E+002	1.6955772E+001	1.4925209E+002	-6.5231657E+000
2.410621825129681E+003	9.000000000000000E+000	6.8132047E+004	1.5057620E+002	2.2784067E+001	1.5229021E+002	-8.6042995E+000
2.411055843283611E+003	9.000000000000000E+000	4.6420355E+004	1.5403922E+002	3.0392391E+001	1.5700885E+002	-1.1161269E+001
2.411489823224212E+003	9.000000000000000E+000	3.1621139E+004	1.5858629E+002	3.9953342E+001	1.6354167E+002	-1.4140511E+001
