time/s	cycle number	freq/Hz	Re(Z)/Ohm	-Im(Z)/Ohm	|Z|/Ohm	Phase(Z)/deg	
1.633499624236720E+000	1.000000000000000E+000	1.0000186E+006	8.7474327E+001	9.7405493E-001	8.7479752E+001	-6.3798064E-001
2.067495271534426E+000	1.000000000000000E+000	6.8129269E+005	8.3424004E+001	1.3286885E+000	8.3434586E+001	-9.1246885E-001
2.361496805475326E+000	1.000000000000000E+000	4.6415716E+005	8.4480370E+001	2.8154159E+000	8.4527267E+001	-1.9087484E+000
2.795485972746974E+000	1.000000000000000E+000	3.1622997E+005	8.5510902E+001	4.0837417E+000	8.5608360E+001	-2.7341955E+000
3.230475513410056E+000	1.000000000000000E+000	2.1544686E+005	8.6539894E+001	5.3848152E+000	8.6707260E+001	-3.5605538E+000
3.664499054051703E+000	1.000000000000000E+000	1.4677664E+005	8.7697929E+001	6.8224444E+000	8.7962906E+001	-4.4483552E+000
4.098495074635139E+000	1.000000000000000E+000	1.0000371E+005	8.9100578E+001	8.4830647E+000	8.9503494E+001	-5.4386082E+000
4.532494348561158E+000	1.000000000000000E+000	6.8132047E+004	9.0523735E+001	1.0516034E+001	9.1132507E+001	-6.6262808E+000
4.966484875854803E+000	1.000000000000000E+000	4.6420355E+004	9.2286049E+001	1.3098579E+001	9.3210983E+001	-8.0782928E+000
5.401484096510103E+000	1.000000000000000E+000	3.1621139E+004	9.4451324E+001	1.6604757E+001	9.5899796E+001	-9.9708395E+000
5.836478383833310E+000	1.000000000000000E+000	2.1544684E+004	9.6838463E+001	2.0987366E+001	9.9086617E+001	-1.2228343E+001
6.270484351116465E+000	1.000000000000000E+000	1.4678594E+004	9.9773064E+001	2.7081593E+001	1.0338316E+002	-1.5186015E+001
6.564484365080716E+000	1.000000000000000E+000	1.0002226E+004	1.0336227E+002	3.5337250E+001	1.0923589E+002	-1.8874411E+001
6.941515023034299E+000	1.000000000000000E+000	6.8110674E+003	1.0795077E+002	4.6705132E+001	1.1762116E+002	-2.3395826E+001
7.411711898726935E+000	1.000000000000000E+000	4.6414854E+003	1.1350317E+002	6.2106632E+001	1.2938394E+002	-2.8686583E+001
7.878671040904010E+000	1.000000000000000E+000	3.1610117E+003	1.2078940E+002	8.3518921E+001	1.4685193E+002	-3.4661629E+001
8.345703729755769E+000	1.000000000000000E+000	2.1556899E+003	1.3029497E+002	1.1215459E+002	1.7191693E+002	-4.0721031E+001
8.812940978590632E+000	1.000000000000000E+000	1.4685898E+003	1.4263947E+002	1.5179041E+002	2.0829388E+002	-4.6780190E+001
9.278670707404672E+000	1.000000000000000E+000	1.0003202E+003	1.5841060E+002	2.0677638E+002	2.6048108E+002	-5.2544415E+001
3.109872814764676E+002	2.000000000000000E+000	1.0000186E+006	7.3741127E+001	-4.0601712E-002	7.3741135E+001	3.1546935E-002
3.114212684571103E+002	2.000000000000000E+000	6.8129269E+005	7.0470596E+001	2.9377908E-001	7.0471207E+001	-2.3885427E-001
3.118552792776900E+002	2.000000000000000E+000	4.6415716E+005	7.1662117E+001	2.1025600E+000	7.1692955E+001	-1.6805708E+000
3.122892803649593E+002	2.000000000000000E+000	3.1622997E+005	7.2852364E+001	3.7105834E+000	7.2946800E+001	-2.9157214E+000
3.127242774523038E+002	2.000000000000000E+000	2.1544686E+005	7.3874390E+001	5.2045960E+000	7.4057503E+001	-4.0299416E+000
3.131582690462528E+002	2.000000000000000E+000	1.4677664E+005	7.5089722E+001	6.8202305E+000	7.5398819E+001	-5.1898065E+000
3.135922780535475E+002	2.000000000000000E+000	1.0000371E+005	7.6363014E+001	8.7340803E+000	7.6860878E+001	-6.5248961E+000
3.140262781807978E+002	2.000000000000000E+000	6.8132047E+004	7.7859711E+001	1.1066403E+001	7.8642227E+001	-8.0894156E+000
3.144602687347506E+002	2.000000000000000E+000	4.6420355E+004	7.9635880E+001	1.3941532E+001	8.0847015E+001	-9.9299126E+000
3.148942726753594E+002	2.000000000000000E+000	3.1621139E+004	8.1710854E+001	1.7901302E+001	8.3648788E+001	-1.2357189E+001
3.153292696560675E+002	2.000000000000000E+000	2.1544684E+004	8.4015701E+001	2.3162931E+001	8.7150215E+001	-1.5413406E+001
3.157632923699857E+002	2.000000000000000E+000	1.4678594E+004	8.6736649E+001	3.0392469E+001	9.1907280E+001	-1.9310431E+001
3.160572881973058E+002	2.000000000000000E+000	1.0002226E+004	9.0184654E+001	4.0460892E+001	9.8845108E+001	-2.4163151E+001
3.164343160551798E+002	2.000000000000000E+000	6.8110674E+003	9.4285805E+001	5.4517696E+001	1.0891277E+002	-3.0037249E+001
3.169044728509107E+002	2.000000000000000E+000	4.6414854E+003	9.9463501E+001	7.4024529E+001	1.2398637E+002	-3.6658028E+001
3.173714981264275E+002	2.000000000000000E+000	3.1610117E+003	1.0620381E+002	1.0140530E+002	1.4684102E+002	-4.3675945E+001
3.178384722552728E+002	2.000000000000000E+000	2.1556899E+003	1.1455697E+002	1.3915538E+002	1.8024295E+002	-5.0537743E+001
3.183067361174908E+002	2.000000000000000E+000	1.4685898E+003	1.2528806E+002	1.9241931E+002	2.2961334E+002	-5.6931046E+001
3.187724676329744E+002	2.000000000000000E+000	1.0003202E+003	1.3874762E+002	2.6805890E+002	3.0183850E+002	-6.2633858E+001
6.204810608553526E+002	3.000000000000000E+000	1.0000186E+006	7.3338974E+001	-5.5206519E-001	7.3341049E+001	4.3129060E-001
6.209150670893432E+002	3.000000000000000E+000	6.8129269E+005	7.0163490E+001	-3.0512139E-001	7.0164154E+001	2.4916175E-001
6.213490764965827E+002	3.000000000000000E+000	4.6415716E+005	7.1201637E+001	1.8177489E+000	7.1224838E+001	-1.4624203E+000
6.217830729705456E+002	3.000000000000000E+000	3.1622997E+005	7.2230125E+001	3.3561926E+000	7.2308060E+001	-2.6603506E+000
6.222180637911952E+002	3.000000000000000E+000	2.1544686E+005	7.3237679E+001	4.8716249E+000	7.3399529E+001	-3.8055954E+000
6.226520817585115E+002	3.000000000000000E+000	1.4677664E+005	7.4318642E+001	6.5699635E+000	7.4608475E+001	-5.0519648E+000
6.230860686324595E+002	3.000000000000000E+000	1.0000371E+005	7.5643227E+001	8.5808201E+000	7.6128365E+001	-6.4718561E+000
6.235210705464415E+002	3.000000000000000E+000	6.8132047E+004	7.7107613E+001	1.0909349E+001	7.7875526E+001	-8.0528812E+000
6.239550656603824E+002	3.000000000000000E+000	4.6420355E+004	7.8869698E+001	1.3849480E+001	8.0076447E+001	-9.9595699E+000
6.243890725610254E+002	3.000000000000000E+000	3.1621139E+004	8.0861893E+001	1.7697577E+001	8.2775902E+001	-1.2345198E+001
6.248240661816380E+002	3.000000000000000E+000	2.1544684E+004	8.3231514E+001	2.3054024E+001	8.6365349E+001	-1.5482024E+001
6.252580713222560E+002	3.000000000000000E+000	1.4678594E+004	8.6016197E+001	3.0178770E+001	9.1156700E+001	-1.9333414E+001
6.255520814162155E+002	3.000000000000000E+000	1.0002226E+004	8.9413788E+001	4.0190163E+001	9.8030991E+001	-2.4203205E+001
6.259290849808312E+002	3.000000000000000E+000	6.8110674E+003	9.3597389E+001	5.4080353E+001	1.0809790E+002	-3.0019220E+001
6.263992725498611E+002	3.000000000000000E+000	4.6414854E+003	9.9070717E+001	7.3413467E+001	1.2330671E+002	-3.6539219E+001
6.268662623587079E+002	3.000000000000000E+000	3.1610117E+003	1.0574022E+002	1.0024378E+002	1.4570453E+002	-4.3471493E+001
6.273332860075607E+002	3.000000000000000E+000	2.1556899E+003	1.1430140E+002	1.3732318E+002	1.7866859E+002	-5.0227585E+001
6.278015490431280E+002	3.000000000000000E+000	1.4685898E+003	1.2486805E+002	1.8980876E+002	2.2719902E+002	-5.6660587E+001
6.282672829585863E+002	3.000000000000000E+000	1.0003202E+003	1.3862802E+002	2.6442801E+002	2.9856305E+002	-6.2333946E+001
9.299788562878093E+002	4.000000000000000E+000	1.0000186E+006	7.3382477E+001	-1.4679357E+000	7.3397156E+001	1.1459862E+000
9.304128612150962E+002	4.000000000000000E+000	6.8129269E+005	6.9911835E+001	-5.8181036E-001	6.9914253E+001	4.7680783E-001
9.308468540890317E+002	4.000000000000000E+000	4.6415716E+005	7.0862328E+001	1.2974576E+000	7.0874207E+001	-1.0489429E+000
9.312818765096890E+002	4.000000000000000E+000	3.1622997E+005	7.1893379E+001	3.0459197E+000	7.1957870E+001	-2.4260097E+000
9.317158770903188E+002	4.000000000000000E+000	2.1544686E+005	7.2843391E+001	4.7448769E+000	7.2997765E+001	-3.7268705E+000
9.321498654042662E+002	4.000000000000000E+000	1.4677664E+005	7.3847466E+001	6.4387169E+000	7.4127625E+001	-4.9829841E+000
9.325838644115429E+002	4.000000000000000E+000	1.0000371E+005	7.5175774E+001	8.4546785E+000	7.5649712E+001	-6.4168329E+000
9.330178586721595E+002	4.000000000000000E+000	6.8132047E+004	7.6664246E+001	1.0915229E+001	7.7437386E+001	-8.1031437E+000
9.334518561060831E+002	4.000000000000000E+000	4.6420355E+004	7.8320244E+001	1.3826311E+001	7.9531296E+001	-1.0011592E+001
9.338858690600318E+002	4.000000000000000E+000	3.1621139E+004	8.0424179E+001	1.7825827E+001	8.2376022E+001	-1.2497429E+001
9.343198723606474E+002	4.000000000000000E+000	2.1544684E+004	8.2866020E+001	2.3063097E+001	8.6015602E+001	-1.5552837E+001
9.347538596879167E+002	4.000000000000000E+000	1.4678594E+004	8.5620728E+001	3.0213760E+001	9.0795265E+001	-1.9436869E+001
9.350478784485895E+002	4.000000000000000E+000	1.0002226E+004	8.9057373E+001	4.0143055E+001	9.7686646E+001	-2.4263710E+001
9.354248882264656E+002	4.000000000000000E+000	6.8110674E+003	9.3301048E+001	5.4071156E+001	1.0783680E+002	-3.0093761E+001
9.358950562755272E+002	4.000000000000000E+000	4.6414854E+003	9.8873688E+001	7.3133072E+001	1.2298151E+002	-3.6488914E+001
9.363620663243782E+002	4.000000000000000E+000	3.1610117E+003	1.0553770E+002	9.9781113E+001	1.4523938E+002	-4.3393997E+001
9.368290721598896E+002	4.000000000000000E+000	2.1556899E+003	1.1394814E+002	1.3699710E+002	1.7819199E+002	-5.0247814E+001
9.372973215687671E+002	4.000000000000000E+000	1.4685898E+003	1.2412286E+002	1.8889137E+002	2.2602309E+002	-5.6690590E+001
9.377630703909163E+002	4.000000000000000E+000	1.0003202E+003	1.3854544E+002	2.6259274E+002	2.9690030E+002	-6.2183613E+001
1.239471666333353E+003	5.000000000000000E+000	1.0000186E+006	7.8559563E+001	-4.6220002E+000	7.8695412E+001	3.3670778E+000
1.239905661393917E+003	5.000000000000000E+000	6.8129269E+005	7.3170364E+001	-3.4799802E+000	7.3253075E+001	2.7229335E+000
1.240339665414562E+003	5.000000000000000E+000	4.6415716E+005	7.3198769E+001	-1.2445703E+000	7.3209351E+001	9.7408402E-001
1.240773665435176E+003	5.000000000000000E+000	3.1622997E+005	7.3479256E+001	1.0159252E+000	7.3486275E+001	-7.9212177E-001
1.241208658629184E+003	5.000000000000000E+000	2.1544686E+005	7.3930244E+001	3.0347390E+000	7.3992508E+001	-2.3505964E+000
1.241642648036446E+003	5.000000000000000E+000	1.4677664E+005	7.4639305E+001	5.2400198E+000	7.4823013E+001	-4.0158362E+000
1.242077661977120E+003	5.000000000000000E+000	1.0000371E+005	7.5716431E+001	7.4824524E+000	7.6085251E+001	-5.6437616E+000
1.242511652344401E+003	5.000000000000000E+000	6.8132047E+004	7.7133003E+001	1.0147837E+001	7.7797676E+001	-7.4949503E+000
1.242945671351656E+003	5.000000000000000E+000	4.6420355E+004	7.8787025E+001	1.3384210E+001	7.9915787E+001	-9.6412706E+000
1.243379649985611E+003	5.000000000000000E+000	3.1621139E+004	8.0844849E+001	1.7472006E+001	8.2711311E+001	-1.2195078E+001
1.243813654139551E+003	5.000000000000000E+000	2.1544684E+004	8.3069893E+001	2.2911785E+001	8.6171669E+001	-1.5419567E+001
1.244247653600149E+003	5.000000000000000E+000	1.4678594E+004	8.5916718E+001	3.0192270E+001	9.1067314E+001	-1.9362148E+001
1.244541647480830E+003	5.000000000000000E+000	1.0002226E+004	8.9362694E+001	4.0389191E+001	9.8066193E+001	-2.4321507E+001
1.244919662538770E+003	5.000000000000000E+000	6.8110674E+003	9.3697273E+001	5.4230652E+001	1.0825961E+002	-3.0061649E+001
1.245389853494475E+003	5.000000000000000E+000	4.6414854E+003	9.9265312E+001	7.3590424E+001	1.2356841E+002	-3.6551422E+001
1.245856859383326E+003	5.000000000000000E+000	3.1610117E+003	1.0593075E+002	1.0029858E+002	1.4588052E+002	-4.3435627E+001
1.246323885112171E+003	5.000000000000000E+000	2.1556899E+003	1.1412759E+002	1.3748055E+002	1.7867850E+002	-5.0302704E+001
1.246792096627731E+003	5.000000000000000E+000	1.4685898E+003	1.2495586E+002	1.8996053E+002	2.2737407E+002	-5.6663120E+001
1.247257863076535E+003	5.000000000000000E+000	1.0003202E+003	1.3839574E+002	2.6344669E+002	2.9758618E+002	-6.2285828E+001
1.548967457658990E+003	6.000000000000000E+000	1.0000186E+006	7.8058548E+001	-4.9793963E+000	7.8217209E+001	3.6499827E+000
1.549401445466297E+003	6.000000000000000E+000	6.8129269E+005	7.3209373E+001	-3.5666311E+000	7.3296204E+001	2.7891436E+000
1.549835440420226E+003	6.000000000000000E+000	4.6415716E+005	7.3147575E+001	-1.1413623E+000	7.3156479E+001	8.9394540E-001
1.550270438814216E+003	6.000000000000000E+000	3.1622997E+005	7.3345161E+001	1.0000868E+000	7.3351982E+001	-7.8119946E-001
1.550704457448184E+003	6.000000000000000E+000	2.1544686E+005	7.3863235E+001	3.1371779E+000	7.3929825E+001	-2.4320502E+000
1.551138455895445E+003	6.000000000000000E+000	1.4677664E+005	7.4627304E+001	5.3418231E+000	7.4818245E+001	-4.0942492E+000
1.551573443542788E+003	6.000000000000000E+000	1.0000371E+005	7.5730568E+001	7.7067075E+000	7.6121696E+001	-5.8106909E+000
1.552007443003386E+003	6.000000000000000E+000	6.8132047E+004	7.7067017E+001	1.0322432E+001	7.7755241E+001	-7.6288481E+000
1.552441463530675E+003	6.000000000000000E+000	4.6420355E+004	7.8807701E+001	1.3590343E+001	7.9970940E+001	-9.7843895E+000
1.552875459791307E+003	6.000000000000000E+000	3.1621139E+004	8.0739479E+001	1.7827616E+001	8.2684265E+001	-1.2451361E+001
1.553309456985240E+003	6.000000000000000E+000	2.1544684E+004	8.3125374E+001	2.3245579E+001	8.6314453E+001	-1.5623373E+001
1.553743461992504E+003	6.000000000000000E+000	1.4678594E+004	8.6001984E+001	3.0693920E+001	9.1315155E+001	-1.9641373E+001
1.554037438646454E+003	6.000000000000000E+000	1.0002226E+004	8.9516922E+001	4.0978107E+001	9.8450417E+001	-2.4596857E+001
1.554415462637757E+003	6.000000000000000E+000	6.8110674E+003	9.3950981E+001	5.5123432E+001	1.0892832E+002	-3.0401234E+001
1.554885674766811E+003	6.000000000000000E+000	4.6414854E+003	9.9569618E+001	7.4529312E+001	1.2437334E+002	-3.6815388E+001
1.555352637295655E+003	6.000000000000000E+000	3.1610117E+003	1.0647990E+002	1.0157161E+002	1.4715556E+002	-4.3648544E+001
1.555819664544506E+003	6.000000000000000E+000	2.1556899E+003	1.1466507E+002	1.3958643E+002	1.8064453E+002	-5.0598164E+001
1.556288925286761E+003	6.000000000000000E+000	1.4685898E+003	1.2564487E+002	1.9252928E+002	2.2990033E+002	-5.6871479E+001
1.556754663575579E+003	6.000000000000000E+000	1.0003202E+003	1.3952760E+002	2.6879465E+002	3.0285065E+002	-6.2566795E+001
1.858463235064672E+003	7.000000000000000E+000	1.0000186E+006	7.8616707E+001	-4.9739685E+000	7.8773895E+001	3.6201982E+000
1.858898235138651E+003	7.000000000000000E+000	6.8129269E+005	7.3159958E+001	-3.5768614E+000	7.3247345E+001	2.7990174E+000
1.859333245239308E+003	7.000000000000000E+000	4.6415716E+005	7.3169479E+001	-1.1520253E+000	7.3178551E+001	9.0202552E-001
1.859767244246585E+003	7.000000000000000E+000	3.1622997E+005	7.3438576E+001	1.0271498E+000	7.3445755E+001	-8.0131608E-001
1.860202246240602E+003	7.000000000000000E+000	2.1544686E+005	7.4007339E+001	3.2472372E+000	7.4078545E+001	-2.5123687E+000
1.860636241407861E+003	7.000000000000000E+000	1.4677664E+005	7.4754395E+001	5.4039254E+000	7.4949463E+001	-4.1346660E+000
1.861071236708522E+003	7.000000000000000E+000	1.0000371E+005	7.5843948E+001	7.7829347E+000	7.6242233E+001	-5.8590550E+000
1.861505234782497E+003	7.000000000000000E+000	6.8132047E+004	7.7248268E+001	1.0483500E+001	7.7956390E+001	-7.7284956E+000
1.861939257256425E+003	7.000000000000000E+000	4.6420355E+004	7.8998161E+001	1.3812819E+001	8.0196655E+001	-9.9178991E+000
1.862373246717063E+003	7.000000000000000E+000	3.1621139E+004	8.1074242E+001	1.8070625E+001	8.3063713E+001	-1.2565254E+001
1.862807241724309E+003	7.000000000000000E+000	2.1544684E+004	8.3509003E+001	2.3733856E+001	8.6816185E+001	-1.5865529E+001
1.863241247104917E+003	7.000000000000000E+000	1.4678594E+004	8.6351456E+001	3.1321003E+001	9.1856293E+001	-1.9936489E+001
1.863535236532247E+003	7.000000000000000E+000	1.0002226E+004	8.9988914E+001	4.1789932E+001	9.9218964E+001	-2.4909674E+001
1.863912265216786E+003	7.000000000000000E+000	6.8110674E+003	9.4508553E+001	5.6232956E+001	1.0997278E+002	-3.0752811E+001
1.864382446305855E+003	7.000000000000000E+000	4.6414854E+003	1.0013956E+002	7.6089012E+001	1.2576752E+002	-3.7228649E+001
1.864849459608035E+003	7.000000000000000E+000	3.1610117E+003	1.0697507E+002	1.0338468E+002	1.4876848E+002	-4.4022179E+001
1.865317444456930E+003	7.000000000000000E+000	2.1556899E+003	1.1544035E+002	1.4213773E+002	1.8311092E+002	-5.0917450E+001
1.865785688585805E+003	7.000000000000000E+000	1.4685898E+003	1.2638611E+002	1.9671896E+002	2.3382001E+002	-5.7280457E+001
1.866251439701293E+003	7.000000000000000E+000	1.0003202E+003	1.3905844E+002	2.7407486E+002	3.0733414E+002	-6.3097950E+001
2.167960029803711E+003	8.000000000000000E+000	1.0000186E+006	7.8705299E+001	-4.3764381E+000	7.8826881E+001	3.1826761E+000
2.168394044197659E+003	8.000000000000000E+000	6.8129269E+005	7.3517349E+001	-3.5464067E+000	7.3602837E+001	2.7617528E+000
2.168829039631615E+003	8.000000000000000E+000	4.6415716E+005	7.3473679E+001	-1.1562086E+000	7.3482773E+001	9.0155298E-001
2.169263045678934E+003	8.000000000000000E+000	3.1622997E+005	7.3769302E+001	1.0873672E+000	7.3777313E+001	-8.4448457E-001
2.169697037379519E+003	8.000000000000000E+000	2.1544686E+005	7.4214081E+001	3.2720978E+000	7.4286179E+001	-2.5245352E+000
2.170131044440175E+003	8.000000000000000E+000	1.4677664E+005	7.5039307E+001	5.4569764E+000	7.5237465E+001	-4.1593175E+000
2.170566044594132E+003	8.000000000000000E+000	1.0000371E+005	7.6115158E+001	7.8908396E+000	7.6523087E+001	-5.9186959E+000
2.171000033494754E+003	8.000000000000000E+000	6.8132047E+004	7.7519455E+001	1.0618917E+001	7.8243385E+001	-7.8000522E+000
2.171434037062019E+003	8.000000000000000E+000	4.6420355E+004	7.9287750E+001	1.4048442E+001	8.0522705E+001	-1.0047561E+001
2.171868032362632E+003	8.000000000000000E+000	3.1621139E+004	8.1363716E+001	1.8369810E+001	8.3411652E+001	-1.2722586E+001
2.172302042249910E+003	8.000000000000000E+000	2.1544684E+004	8.3837166E+001	2.3995571E+001	8.7203545E+001	-1.5971990E+001
2.172736038937204E+003	8.000000000000000E+000	1.4678594E+004	8.6784668E+001	3.1855530E+001	9.2446487E+001	-2.0156370E+001
2.173031049671205E+003	8.000000000000000E+000	1.0002226E+004	9.0520905E+001	4.2492180E+001	9.9998100E+001	-2.5146225E+001
2.173408040089154E+003	8.000000000000000E+000	6.8110674E+003	9.4962326E+001	5.6989933E+001	1.1075060E+002	-3.0969316E+001
2.173878220884850E+003	8.000000000000000E+000	4.6414854E+003	1.0054588E+002	7.7213982E+001	1.2677332E+002	-3.7522377E+001
2.174345226293699E+003	8.000000000000000E+000	3.1610117E+003	1.0769216E+002	1.0526698E+002	1.5059462E+002	-4.4347546E+001
2.174812252955882E+003	8.000000000000000E+000	2.1556899E+003	1.1607333E+002	1.4422841E+002	1.8513469E+002	-5.1173298E+001
2.175280519698106E+003	8.000000000000000E+000	1.4685898E+003	1.2652808E+002	1.9988751E+002	2.3656790E+002	-5.7666336E+001
2.175746256386919E+003	8.000000000000000E+000	1.0003202E+003	1.3964174E+002	2.7888693E+002	3.1189380E+002	-6.3402370E+001
2.477454823635955E+003	9.000000000000000E+000	1.0000186E+006	7.9403687E+001	-5.1080017E+000	7.9567818E+001	3.6807387E+000
2.477888842936576E+003	9.000000000000000E+000	6.8129269E+005	7.3807625E+001	-3.6018953E+000	7.3895462E+001	2.7938821E+000
2.478323838023905E+003	9.000000000000000E+000	4.6415716E+005	7.3763893E+001	-1.2090290E+000	7.3773804E+001	9.3902379E-001
2.478758834791282E+003	9.000000000000000E+000	3.1622997E+005	7.4024544E+001	1.1268079E+000	7.4033119E+001	-8.7209392E-001
2.479192830518557E+003	9.000000000000000E+000	2.1544686E+005	7.4573006E+001	3.3348358E+000	7.4647537E+001	-2.5605083E+000
2.479627822779206E+003	9.000000000000000E+000	1.4677664E+005	7.5388191E+001	5.5389767E+000	7.5591400E+001	-4.2021270E+000
2.480061820693169E+003	9.000000000000000E+000	1.0000371E+005	7.6563087E+001	8.0029888E+000	7.6980217E+001	-5.9673452E+000
2.480495818980417E+003	9.000000000000000E+000	6.8132047E+004	7.7945900E+001	1.0803136E+001	7.8690987E+001	-7.8908033E+000
2.480930832227779E+003	9.000000000000000E+000	4.6420355E+004	7.9731598E+001	1.4247204E+001	8.0994507E+001	-1.0131230E+001
2.481364836221706E+003	9.000000000000000E+000	3.1621139E+004	8.1788399E+001	1.8595587E+001	8.3875732E+001	-1.2809138E+001
