time/s	cycle number	freq/Hz	Re(Z)/Ohm	-Im(Z)/Ohm	|Z|/Ohm	Phase(Z)/deg	
1.633488264196785E+000	1.000000000000000E+000	1.0000186E+006	6.7856560E+001	-9.4310226E+000	6.8508812E+001	7.9125471E+000
2.067476978147170E+000	1.000000000000000E+000	6.8129269E+005	6.2212391E+001	-7.4453259E+000	6.2656319E+001	6.8244691E+000
2.501495852106018E+000	1.000000000000000E+000	4.6415716E+005	6.1796661E+001	-3.9485495E+000	6.1922680E+001	3.6559920E+000
2.936492352775531E+000	1.000000000000000E+000	3.1622997E+005	6.1647251E+001	-8.8426274E-001	6.1653591E+001	8.2178926E-001
3.370488960033981E+000	1.000000000000000E+000	2.1544686E+005	6.1880878E+001	2.0439696E+000	6.1914627E+001	-1.8918326E+000
3.805480980750872E+000	1.000000000000000E+000	1.4677664E+005	6.2468662E+001	4.8648400E+000	6.2657803E+001	-4.4530067E+000
4.239494201348862E+000	1.000000000000000E+000	1.0000371E+005	6.3339859E+001	7.9475093E+000	6.3836514E+001	-7.1517587E+000
4.674487448675791E+000	1.000000000000000E+000	6.8132047E+004	6.4437660E+001	1.1468483E+001	6.5450272E+001	-1.0091716E+001
5.109484429325676E+000	1.000000000000000E+000	4.6420355E+004	6.5813965E+001	1.5787134E+001	6.7680954E+001	-1.3488969E+001
5.544478689989774E+000	1.000000000000000E+000	3.1621139E+004	6.7416718E+001	2.1640301E+001	7.0804779E+001	-1.7796272E+001
5.978497670585057E+000	1.000000000000000E+000	2.1544684E+004	6.9270935E+001	2.9692286E+001	7.5366402E+001	-2.3201902E+001
6.412489504524274E+000	1.000000000000000E+000	1.4678594E+004	7.1362343E+001	4.1098419E+001	8.2350861E+001	-2.9938150E+001
6.706486531853443E+000	1.000000000000000E+000	1.0002226E+004	7.4027336E+001	5.7220303E+001	9.3563934E+001	-3.7702652E+001
7.084505509788869E+000	1.000000000000000E+000	6.8110674E+003	7.7517998E+001	8.0485023E+001	1.1174471E+002	-4.6075790E+001
7.554680305518559E+000	1.000000000000000E+000	4.6414854E+003	8.2257774E+001	1.1376159E+002	1.4038533E+002	-5.4130375E+001
8.021709767701395E+000	1.000000000000000E+000	3.1610117E+003	8.8747208E+001	1.6113658E+002	1.8395941E+002	-6.1155888E+001
8.489667283261952E+000	1.000000000000000E+000	2.1556899E+003	9.8940254E+001	2.2850052E+002	2.4900133E+002	-6.6587486E+001
9.211955610895529E+000	1.000000000000000E+000	1.4685898E+003	1.1335039E+002	3.2281616E+002	3.4213824E+002	-7.0652306E+001
9.677691979690280E+000	1.000000000000000E+000	1.0003202E+003	1.3333801E+002	4.5627246E+002	4.7535626E+002	-7.3709877E+001
3.115462772630563E+002	2.000000000000000E+000	1.0000186E+006	6.4236084E+001	-1.0027291E+001	6.5014008E+001	8.8723030E+000
3.119802705903130E+002	2.000000000000000E+000	6.8129269E+005	5.9237854E+001	-7.5510159E+000	5.9717178E+001	7.2642851E+000
3.124142867976043E+002	2.000000000000000E+000	4.6415716E+005	5.8866341E+001	-4.1586351E+000	5.9013054E+001	4.0409689E+000
3.128492836182413E+002	2.000000000000000E+000	3.1622997E+005	5.8790962E+001	-1.1014938E+000	5.8801281E+001	1.0733548E+000
3.132832814522262E+002	2.000000000000000E+000	2.1544686E+005	5.8977928E+001	1.7671738E+000	5.9004398E+001	-1.7162575E+000
3.137172728861624E+002	2.000000000000000E+000	1.4677664E+005	5.9520222E+001	4.6064038E+000	5.9698204E+001	-4.4254279E+000
3.141512918400986E+002	2.000000000000000E+000	1.0000371E+005	6.0412811E+001	7.5132661E+000	6.0878216E+001	-7.0892153E+000
3.145852802873997E+002	2.000000000000000E+000	6.8132047E+004	6.1466045E+001	1.1002002E+001	6.2442924E+001	-1.0148087E+001
3.150192788412969E+002	2.000000000000000E+000	4.6420355E+004	6.2755657E+001	1.5321563E+001	6.4598938E+001	-1.3720149E+001
3.154532686752791E+002	2.000000000000000E+000	3.1621139E+004	6.4231285E+001	2.1046101E+001	6.7591393E+001	-1.8141962E+001
3.158872926692420E+002	2.000000000000000E+000	2.1544684E+004	6.5995377E+001	2.9016502E+001	7.2092628E+001	-2.3733881E+001
3.163212917298370E+002	2.000000000000000E+000	1.4678594E+004	6.7920746E+001	4.0233120E+001	7.8942581E+001	-3.0640547E+001
3.166162852638226E+002	2.000000000000000E+000	1.0002226E+004	7.0402550E+001	5.6387165E+001	9.0199951E+001	-3.8692112E+001
3.169932943217282E+002	2.000000000000000E+000	6.8110674E+003	7.3703896E+001	7.9409363E+001	1.0834257E+002	-4.7134029E+001
3.174634992774663E+002	2.000000000000000E+000	4.6414854E+003	7.8342041E+001	1.1225678E+002	1.3689069E+002	-5.5089489E+001
3.179314591130242E+002	2.000000000000000E+000	3.1610117E+003	8.4806610E+001	1.5910509E+002	1.8029584E+002	-6.1941372E+001
3.183984999352106E+002	2.000000000000000E+000	2.1556899E+003	9.4471306E+001	2.2576584E+002	2.4473463E+002	-6.7293213E+001
3.188667575307773E+002	2.000000000000000E+000	1.4685898E+003	1.0695896E+002	3.1979620E+002	3.3720889E+002	-7.1506989E+001
3.195864750582987E+002	2.000000000000000E+000	1.0003202E+003	1.2709007E+002	4.5538586E+002	4.7278766E+002	-7.4406532E+001
6.214550710883050E+002	3.000000000000000E+000	1.0000186E+006	6.3047184E+001	-1.0165576E+001	6.3861462E+001	9.1594019E+000
6.218890776955814E+002	3.000000000000000E+000	6.8129269E+005	5.8005032E+001	-7.6818051E+000	5.8511486E+001	7.5439773E+000
6.223230696362152E+002	3.000000000000000E+000	4.6415716E+005	5.7546402E+001	-4.3078022E+000	5.7707413E+001	4.2810569E+000
6.227570738434733E+002	3.000000000000000E+000	3.1622997E+005	5.7393692E+001	-1.1738182E+000	5.7405693E+001	1.1716523E+000
6.231910711441014E+002	3.000000000000000E+000	2.1544686E+005	5.7640549E+001	1.6159073E+000	5.7663193E+001	-1.6058215E+000
6.236250767646998E+002	3.000000000000000E+000	1.4677664E+005	5.8158806E+001	4.4111857E+000	5.8325855E+001	-4.3374228E+000
6.240590636919660E+002	3.000000000000000E+000	1.0000371E+005	5.8975258E+001	7.3675170E+000	5.9433670E+001	-7.1208172E+000
6.244930605392728E+002	3.000000000000000E+000	6.8132047E+004	5.9980877E+001	1.0753314E+001	6.0937176E+001	-1.0163957E+001
6.249270797865756E+002	3.000000000000000E+000	4.6420355E+004	6.1175777E+001	1.5043603E+001	6.2998299E+001	-1.3815360E+001
6.253610758871946E+002	3.000000000000000E+000	3.1621139E+004	6.2695148E+001	2.0706795E+001	6.6026154E+001	-1.8277225E+001
6.257950703611423E+002	3.000000000000000E+000	2.1544684E+004	6.4235992E+001	2.8614702E+001	7.0321152E+001	-2.4011162E+001
6.262290653950477E+002	3.000000000000000E+000	1.4678594E+004	6.6176071E+001	3.9674774E+001	7.7158020E+001	-3.0944099E+001
6.265230832490197E+002	3.000000000000000E+000	1.0002226E+004	6.8539856E+001	5.5589943E+001	8.8249382E+001	-3.9044132E+001
6.269001115869323E+002	3.000000000000000E+000	6.8110674E+003	7.1798515E+001	7.8567421E+001	1.0643245E+002	-4.7577499E+001
6.273702576093201E+002	3.000000000000000E+000	4.6414854E+003	7.6369637E+001	1.1109251E+002	1.3481049E+002	-5.5493740E+001
6.278372656581632E+002	3.000000000000000E+000	3.1610117E+003	8.2642448E+001	1.5767107E+002	1.7801668E+002	-6.2338959E+001
6.283032930669651E+002	3.000000000000000E+000	2.1556899E+003	9.1761894E+001	2.2294102E+002	2.4108701E+002	-6.7628075E+001
6.287715231691836E+002	3.000000000000000E+000	1.4685898E+003	1.0403908E+002	3.1782330E+002	3.3441858E+002	-7.1874207E+001
6.294922623501043E+002	3.000000000000000E+000	1.0003202E+003	1.2208986E+002	4.5002203E+002	4.6628937E+002	-7.4821159E+001
9.313598531000607E+002	4.000000000000000E+000	1.0000186E+006	6.0882286E+001	-1.0180323E+001	6.1727562E+001	9.4927883E+000
9.317938569606922E+002	4.000000000000000E+000	6.8129269E+005	5.6787548E+001	-7.9182887E+000	5.7336941E+001	7.9379740E+000
9.322288532213133E+002	4.000000000000000E+000	4.6415716E+005	5.6268074E+001	-4.4453101E+000	5.6443398E+001	4.5171189E+000
9.326628752152610E+002	4.000000000000000E+000	3.1622997E+005	5.6142246E+001	-1.2962941E+000	5.6157211E+001	1.3226935E+000
9.330968655558827E+002	4.000000000000000E+000	2.1544686E+005	5.6297924E+001	1.5363111E+000	5.6318882E+001	-1.5631536E+000
9.335308658698632E+002	4.000000000000000E+000	1.4677664E+005	5.6783470E+001	4.3088856E+000	5.6946720E+001	-4.3394446E+000
9.339648751438071E+002	4.000000000000000E+000	1.0000371E+005	5.7619808E+001	7.2725110E+000	5.8076946E+001	-7.1935759E+000
9.343988610310771E+002	4.000000000000000E+000	6.8132047E+004	5.8610851E+001	1.0615144E+001	5.9564362E+001	-1.0265690E+001
9.348338573717338E+002	4.000000000000000E+000	4.6420355E+004	5.9875092E+001	1.4822068E+001	6.1682415E+001	-1.3904040E+001
9.352678765390010E+002	4.000000000000000E+000	3.1621139E+004	6.1167118E+001	2.0462130E+001	6.4498955E+001	-1.8496546E+001
9.357018694396538E+002	4.000000000000000E+000	2.1544684E+004	6.2811085E+001	2.8295609E+001	6.8890305E+001	-2.4250969E+001
9.361358743669407E+002	4.000000000000000E+000	1.4678594E+004	6.4694572E+001	3.9396824E+001	7.5746269E+001	-3.1340012E+001
9.364308597942872E+002	4.000000000000000E+000	1.0002226E+004	6.7078537E+001	5.5170383E+001	8.6852180E+001	-3.9436424E+001
9.368078833854815E+002	4.000000000000000E+000	6.8110674E+003	7.0110519E+001	7.8146828E+001	1.0498767E+002	-4.8102692E+001
9.372780920745499E+002	4.000000000000000E+000	4.6414854E+003	7.4823578E+001	1.1035023E+002	1.3332570E+002	-5.5860554E+001
9.377450492967328E+002	4.000000000000000E+000	3.1610117E+003	8.1160301E+001	1.5644135E+002	1.7624100E+002	-6.2580139E+001
9.382120538789095E+002	4.000000000000000E+000	2.1556899E+003	9.0269783E+001	2.2200691E+002	2.3965747E+002	-6.7872948E+001
9.386803204077878E+002	4.000000000000000E+000	1.4685898E+003	1.0268871E+002	3.1587030E+002	3.3214307E+002	-7.1990776E+001
9.394000888686714E+002	4.000000000000000E+000	1.0003202E+003	1.2137121E+002	4.4665640E+002	4.6285303E+002	-7.4797928E+001
1.241267647378641E+003	5.000000000000000E+000	1.0000186E+006	6.0737144E+001	-1.0382164E+001	6.1618099E+001	9.7001591E+000
1.241701663079235E+003	5.000000000000000E+000	6.8129269E+005	5.5661354E+001	-7.7572527E+000	5.6199299E+001	7.9339323E+000
1.242135662966553E+003	5.000000000000000E+000	4.6415716E+005	5.5189827E+001	-4.4605551E+000	5.5369789E+001	4.6207185E+000
1.242569654427149E+003	5.000000000000000E+000	3.1622997E+005	5.5117149E+001	-1.3170332E+000	5.5132881E+001	1.3688314E+000
1.243004670474475E+003	5.000000000000000E+000	2.1544686E+005	5.5337612E+001	1.4733049E+000	5.5357220E+001	-1.5250788E+000
1.243438662095083E+003	5.000000000000000E+000	1.4677664E+005	5.5810364E+001	4.1964712E+000	5.5967911E+001	-4.3000703E+000
1.243872666595707E+003	5.000000000000000E+000	1.0000371E+005	5.6597408E+001	7.1342273E+000	5.7045280E+001	-7.1843667E+000
1.244306661202951E+003	5.000000000000000E+000	6.8132047E+004	5.7612896E+001	1.0501411E+001	5.8562149E+001	-1.0330201E+001
1.244741663516994E+003	5.000000000000000E+000	4.6420355E+004	5.8774628E+001	1.4634721E+001	6.0569233E+001	-1.3982157E+001
1.245176657164324E+003	5.000000000000000E+000	3.1621139E+004	6.0136570E+001	2.0217638E+001	6.3444149E+001	-1.8582407E+001
1.245610663291562E+003	5.000000000000000E+000	2.1544684E+004	6.1666000E+001	2.8109211E+001	6.7770370E+001	-2.4504921E+001
1.246045651765569E+003	5.000000000000000E+000	1.4678594E+004	6.3544662E+001	3.9095707E+001	7.4608299E+001	-3.1601814E+001
1.246339665859559E+003	5.000000000000000E+000	1.0002226E+004	6.6026558E+001	5.4784386E+001	8.5795311E+001	-3.9683601E+001
1.246716693424125E+003	5.000000000000000E+000	6.8110674E+003	6.9143013E+001	7.7354584E+001	1.0375205E+002	-4.8208221E+001
1.247186867073164E+003	5.000000000000000E+000	4.6414854E+003	7.3244278E+001	1.0976099E+002	1.3195529E+002	-5.6284538E+001
1.247653874988675E+003	5.000000000000000E+000	3.1610117E+003	7.9612000E+001	1.5577475E+002	1.7493954E+002	-6.2929729E+001
1.248120878157526E+003	5.000000000000000E+000	2.1556899E+003	8.8896378E+001	2.2129903E+002	2.3848653E+002	-6.8114548E+001
1.248589116739749E+003	5.000000000000000E+000	1.4685898E+003	1.0148221E+002	3.1416492E+002	3.3014880E+002	-7.2098396E+001
1.249309850507336E+003	5.000000000000000E+000	1.0003202E+003	1.1942467E+002	4.4453433E+002	4.6029666E+002	-7.4962479E+001
1.551177462723950E+003	6.000000000000000E+000	1.0000186E+006	5.9776470E+001	-1.0598160E+001	6.0708710E+001	1.0053866E+001
1.551611458397907E+003	6.000000000000000E+000	6.8129269E+005	5.4746792E+001	-7.9395900E+000	5.5319511E+001	8.2517252E+000
1.552046450765250E+003	6.000000000000000E+000	4.6415716E+005	5.4401321E+001	-4.4217029E+000	5.4580723E+001	4.6467476E+000
1.552480448892544E+003	6.000000000000000E+000	3.1622997E+005	5.4338303E+001	-1.3768849E+000	5.4355743E+001	1.4515142E+000
1.552915450779867E+003	6.000000000000000E+000	2.1544686E+005	5.4554855E+001	1.4227748E+000	5.4573406E+001	-1.4939187E+000
1.553350449547201E+003	6.000000000000000E+000	1.4677664E+005	5.5000053E+001	4.1503553E+000	5.5156425E+001	-4.3154144E+000
1.553784463727759E+003	6.000000000000000E+000	1.0000371E+005	5.5772335E+001	7.0287066E+000	5.6213486E+001	-7.1828318E+000
1.554219455028448E+003	6.000000000000000E+000	6.8132047E+004	5.6741356E+001	1.0398637E+001	5.7686333E+001	-1.0385004E+001
1.554653456275730E+003	6.000000000000000E+000	4.6420355E+004	5.7931065E+001	1.4536166E+001	5.9726948E+001	-1.4085940E+001
1.555088444989728E+003	6.000000000000000E+000	3.1621139E+004	5.9228523E+001	2.0171532E+001	6.2569229E+001	-1.8807367E+001
1.555522441703681E+003	6.000000000000000E+000	2.1544684E+004	6.0778637E+001	2.7934925E+001	6.6890976E+001	-2.4684340E+001
1.555957462071005E+003	6.000000000000000E+000	1.4678594E+004	6.2629246E+001	3.8951214E+001	7.3753777E+001	-3.1878857E+001
1.556251459818304E+003	6.000000000000000E+000	1.0002226E+004	6.4986046E+001	5.4621262E+001	8.4892097E+001	-4.0047306E+001
1.556629479169584E+003	6.000000000000000E+000	6.8110674E+003	6.8031921E+001	7.7156067E+001	1.0286594E+002	-4.8595947E+001
1.557099657885301E+003	6.000000000000000E+000	4.6414854E+003	7.2285240E+001	1.0935448E+002	1.3108607E+002	-5.6534595E+001
1.557566662787482E+003	6.000000000000000E+000	3.1610117E+003	7.8664742E+001	1.5546245E+002	1.7423178E+002	-6.3160370E+001
1.558033666009665E+003	6.000000000000000E+000	2.1556899E+003	8.7566002E+001	2.1979634E+002	2.3659720E+002	-6.8277855E+001
1.558501926538564E+003	6.000000000000000E+000	1.4685898E+003	1.0004747E+002	3.1259671E+002	3.2821671E+002	-7.2252579E+001
1.559221637932758E+003	6.000000000000000E+000	1.0003202E+003	1.1945212E+002	4.4292853E+002	4.5875320E+002	-7.4907135E+001
1.861089241296024E+003	7.000000000000000E+000	1.0000186E+006	5.8430550E+001	-1.0468998E+001	5.9361008E+001	1.0157900E+001
1.861523234596680E+003	7.000000000000000E+000	6.8129269E+005	5.4138535E+001	-7.9928265E+000	5.4725372E+001	8.3982840E+000
1.861957247763959E+003	7.000000000000000E+000	4.6415716E+005	5.3754036E+001	-4.5347567E+000	5.3944977E+001	4.8221245E+000
1.862391241277888E+003	7.000000000000000E+000	3.1622997E+005	5.3656216E+001	-1.3924562E+000	5.3674282E+001	1.4865744E+000
1.862825232205185E+003	7.000000000000000E+000	2.1544686E+005	5.3857788E+001	1.3875934E+000	5.3875660E+001	-1.4758434E+000
1.863259242572443E+003	7.000000000000000E+000	1.4677664E+005	5.4315929E+001	4.1021905E+000	5.4470619E+001	-4.3190427E+000
1.863693236513092E+003	7.000000000000000E+000	1.0000371E+005	5.5074081E+001	6.9724092E+000	5.5513683E+001	-7.2152925E+000
1.864127236187021E+003	7.000000000000000E+000	6.8132047E+004	5.6025177E+001	1.0324429E+001	5.6968536E+001	-1.0441433E+001
1.864561256660934E+003	7.000000000000000E+000	4.6420355E+004	5.7252190E+001	1.4389441E+001	5.9032780E+001	-1.4108175E+001
1.864995232308254E+003	7.000000000000000E+000	3.1621139E+004	5.8521057E+001	2.0104134E+001	6.1878029E+001	-1.8959480E+001
1.865430250195583E+003	7.000000000000000E+000	2.1544684E+004	6.0055443E+001	2.7794554E+001	6.6175476E+001	-2.4835403E+001
1.865865249122871E+003	7.000000000000000E+000	1.4678594E+004	6.1894833E+001	3.8753532E+001	7.3026070E+001	-3.2051464E+001
1.866160233723553E+003	7.000000000000000E+000	1.0002226E+004	6.4186829E+001	5.4416592E+001	8.4149361E+001	-4.0290756E+001
1.866537259661505E+003	7.000000000000000E+000	6.8110674E+003	6.7142387E+001	7.6923691E+001	1.0210462E+002	-4.8884109E+001
1.867007437523869E+003	7.000000000000000E+000	4.6414854E+003	7.1481964E+001	1.0884778E+002	1.3022101E+002	-5.6706493E+001
1.867474424372718E+003	7.000000000000000E+000	3.1610117E+003	7.7734642E+001	1.5449728E+002	1.7295111E+002	-6.3290943E+001
1.867941430634899E+003	7.000000000000000E+000	2.1556899E+003	8.7332909E+001	2.1939243E+002	2.3613571E+002	-6.8294128E+001
1.868409709830448E+003	7.000000000000000E+000	1.4685898E+003	9.9920105E+001	3.1168140E+002	3.2730615E+002	-7.2224976E+001
1.869129471864660E+003	7.000000000000000E+000	1.0003202E+003	1.1705424E+002	4.4214819E+002	4.5738028E+002	-7.5171700E+001
2.170997027254634E+003	8.000000000000000E+000	1.0000186E+006	5.8174576E+001	-1.0768920E+001	5.9162918E+001	1.0487526E+001
2.171431038528535E+003	8.000000000000000E+000	6.8129269E+005	5.3287605E+001	-8.0522308E+000	5.3892551E+001	8.5928917E+000
2.171865033055859E+003	8.000000000000000E+000	4.6415716E+005	5.3208393E+001	-4.5578227E+000	5.3403248E+001	4.8959961E+000
2.172299041316466E+003	8.000000000000000E+000	3.1622997E+005	5.3125645E+001	-1.4383214E+000	5.3145111E+001	1.5508447E+000
2.172734042563796E+003	8.000000000000000E+000	2.1544686E+005	5.3328472E+001	1.3547932E+000	5.3345680E+001	-1.4552683E+000
2.173168030451081E+003	8.000000000000000E+000	1.4677664E+005	5.3769691E+001	4.0489078E+000	5.3921921E+001	-4.3062987E+000
2.173602033831674E+003	8.000000000000000E+000	1.0000371E+005	5.4568619E+001	6.9185114E+000	5.5005455E+001	-7.2257237E+000
2.174036033478944E+003	8.000000000000000E+000	6.8132047E+004	5.5540913E+001	1.0265844E+001	5.6481682E+001	-1.0472017E+001
2.174471026406303E+003	8.000000000000000E+000	4.6420355E+004	5.6649136E+001	1.4386436E+001	5.8447361E+001	-1.4249418E+001
2.174906045200274E+003	8.000000000000000E+000	3.1621139E+004	5.7934208E+001	1.9928530E+001	6.1265968E+001	-1.8982475E+001
2.175340041567542E+003	8.000000000000000E+000	2.1544684E+004	5.9469433E+001	2.7656404E+001	6.5585747E+001	-2.4940899E+001
2.175774042414821E+003	8.000000000000000E+000	1.4678594E+004	6.1292362E+001	3.8566135E+001	7.2416161E+001	-3.2178761E+001
2.176068030722119E+003	8.000000000000000E+000	1.0002226E+004	6.3550663E+001	5.4237366E+001	8.3548660E+001	-4.0479126E+001
2.176445042100066E+003	8.000000000000000E+000	6.8110674E+003	6.6637726E+001	7.6645340E+001	1.0156326E+002	-4.8995338E+001
2.176915220175768E+003	8.000000000000000E+000	4.6414854E+003	7.0786232E+001	1.0858036E+002	1.2961630E+002	-5.6898674E+001
2.177382245744622E+003	8.000000000000000E+000	3.1610117E+003	7.7210457E+001	1.5401909E+002	1.7228851E+002	-6.3375187E+001
2.177849224140125E+003	8.000000000000000E+000	2.1556899E+003	8.6222633E+001	2.1882695E+002	2.3520114E+002	-6.8494469E+001
2.178317488509027E+003	8.000000000000000E+000	1.4685898E+003	9.8325699E+001	3.1134885E+002	3.2650583E+002	-7.2473595E+001
2.179038225396609E+003	8.000000000000000E+000	1.0003202E+003	1.1611900E+002	4.4199484E+002	4.5699350E+002	-7.5280128E+001
2.480905823186535E+003	9.000000000000000E+000	1.0000186E+006	5.7210335E+001	-1.0494699E+001	5.8164948E+001	1.0394805E+001
2.481339832833823E+003	9.000000000000000E+000	6.8129269E+005	5.3001175E+001	-7.8942466E+000	5.3585854E+001	8.4716253E+000
2.481773817441106E+003	9.000000000000000E+000	4.6415716E+005	5.2715878E+001	-4.5674701E+000	5.2913376E+001	4.9519205E+000
2.482207836555055E+003	9.000000000000000E+000	3.1622997E+005	5.2678112E+001	-1.4466364E+000	5.2697971E+001	1.5730506E+000
2.482641824549035E+003	9.000000000000000E+000	2.1544686E+005	5.2890633E+001	1.3697735E+000	5.2908367E+001	-1.4835273E+000
2.483076837503031E+003	9.000000000000000E+000	1.4677664E+005	5.3332386E+001	4.0829062E+000	5.3488441E+001	-4.3777881E+000
2.483510842376942E+003	9.000000000000000E+000	1.0000371E+005	5.4100163E+001	6.8837729E+000	5.4536354E+001	-7.2514205E+000
2.483944839624251E+003	9.000000000000000E+000	6.8132047E+004	5.5068024E+001	1.0192619E+001	5.6003365E+001	-1.0486283E+001
2.484378837564873E+003	9.000000000000000E+000	4.6420355E+004	5.6177937E+001	1.4320703E+001	5.7974503E+001	-1.4301079E+001
2.484812820865453E+003	9.000000000000000E+000	3.1621139E+004	5.7450142E+001	1.9943052E+001	6.0813190E+001	-1.9143763E+001
