time/s	cycle number	freq/Hz	Re(Z)/Ohm	-Im(Z)/Ohm	|Z|/Ohm	Phase(Z)/deg	
1.637488317763200E+000	1.000000000000000E+000	1.0000186E+006	6.0347748E+001	-9.2327499E+000	6.1049934E+001	8.6983728E+000
2.071475778386230E+000	1.000000000000000E+000	6.8129269E+005	5.4995293E+001	-7.5373626E+000	5.5509403E+001	7.8040342E+000
2.506491905689472E+000	1.000000000000000E+000	4.6415716E+005	5.4315590E+001	-4.7241521E+000	5.4520645E+001	4.9708476E+000
2.940485739643918E+000	1.000000000000000E+000	3.1622997E+005	5.4064220E+001	-2.2124765E+000	5.4109470E+001	2.3434143E+000
3.374484186904738E+000	1.000000000000000E+000	2.1544686E+005	5.4035473E+001	-1.0546396E-002	5.4035473E+001	1.1182727E-002
3.809479060902959E+000	1.000000000000000E+000	1.4677664E+005	5.4394596E+001	2.0782154E+000	5.4434280E+001	-2.1879947E+000
4.243486201536143E+000	1.000000000000000E+000	1.0000371E+005	5.5041481E+001	4.1930437E+000	5.5200962E+001	-4.3563614E+000
4.678495315514738E+000	1.000000000000000E+000	6.8132047E+004	5.5996372E+001	6.1687241E+000	5.6335129E+001	-6.2865214E+000
5.112486962781986E+000	1.000000000000000E+000	4.6420355E+004	5.7188671E+001	8.5936832E+000	5.7830750E+001	-8.5458374E+000
5.546490076725604E+000	1.000000000000000E+000	3.1621139E+004	5.8728687E+001	1.1495334E+001	5.9843140E+001	-1.1074842E+001
5.980494684044970E+000	1.000000000000000E+000	2.1544684E+004	6.0713436E+001	1.5174474E+001	6.2581036E+001	-1.4032793E+001
6.414490224648034E+000	1.000000000000000E+000	1.4678594E+004	6.3136139E+001	1.9758532E+001	6.6155663E+001	-1.7377573E+001
6.848482005269034E+000	1.000000000000000E+000	1.0002226E+004	6.6231102E+001	2.5558949E+001	7.0991684E+001	-2.1101877E+001
7.225489383185050E+000	1.000000000000000E+000	6.8110674E+003	7.0049149E+001	3.2953266E+001	7.7413185E+001	-2.5193731E+001
7.695694578884286E+000	1.000000000000000E+000	4.6414854E+003	7.4683266E+001	4.2777691E+001	8.6066956E+001	-2.9803572E+001
8.162673587728932E+000	1.000000000000000E+000	3.1610117E+003	7.9469109E+001	5.6076714E+001	9.7262207E+001	-3.5208389E+001
8.629680863246904E+000	1.000000000000000E+000	2.1556899E+003	8.4417068E+001	7.4552742E+001	1.1262483E+002	-4.1449261E+001
9.097942805470666E+000	1.000000000000000E+000	1.4685898E+003	9.0848167E+001	1.0128780E+002	1.3606105E+002	-4.8110088E+001
9.563668000941107E+000	1.000000000000000E+000	1.0003202E+003	9.7869644E+001	1.3958946E+002	1.7048074E+002	-5.4964745E+001
3.114352683777397E+002	2.000000000000000E+000	1.0000186E+006	5.2849514E+001	-9.0135107E+000	5.3612633E+001	9.6786985E+000
3.118692798383709E+002	2.000000000000000E+000	6.8129269E+005	4.9284325E+001	-8.2766275E+000	4.9974464E+001	9.5330868E+000
3.123032878056692E+002	2.000000000000000E+000	4.6415716E+005	4.8236725E+001	-4.8072648E+000	4.8475677E+001	5.6912966E+000
3.127372764395841E+002	2.000000000000000E+000	3.1622997E+005	4.8024178E+001	-2.3234227E+000	4.8080349E+001	2.7698255E+000
3.131712775535707E+002	2.000000000000000E+000	2.1544686E+005	4.8016548E+001	-1.8499726E-001	4.8016903E+001	2.2074702E-001
3.136052834941365E+002	2.000000000000000E+000	1.4677664E+005	4.8365608E+001	1.7562940E+000	4.8397488E+001	-2.0796602E+000
3.140392875947582E+002	2.000000000000000E+000	1.0000371E+005	4.8912830E+001	3.6038904E+000	4.9045418E+001	-4.2139306E+000
3.144742835354118E+002	2.000000000000000E+000	6.8132047E+004	4.9709091E+001	5.5800371E+000	5.0021301E+001	-6.4048595E+000
3.149082868093683E+002	2.000000000000000E+000	4.6420355E+004	5.0746887E+001	7.8323874E+000	5.1347763E+001	-8.7739258E+000
3.153422845366586E+002	2.000000000000000E+000	3.1621139E+004	5.2089596E+001	1.0430064E+001	5.3123558E+001	-1.1322777E+001
3.157762745305954E+002	2.000000000000000E+000	2.1544684E+004	5.3797649E+001	1.3777919E+001	5.5533936E+001	-1.4365054E+001
3.162102824978938E+002	2.000000000000000E+000	1.4678594E+004	5.5986599E+001	1.8075212E+001	5.8832069E+001	-1.7892618E+001
3.166442916384840E+002	2.000000000000000E+000	1.0002226E+004	5.8758297E+001	2.3507984E+001	6.3286354E+001	-2.1805330E+001
3.170223102431337E+002	2.000000000000000E+000	6.8110674E+003	6.2332432E+001	3.0401693E+001	6.9351242E+001	-2.6000101E+001
3.174924856521757E+002	2.000000000000000E+000	4.6414854E+003	6.6182259E+001	3.9858318E+001	7.7257858E+001	-3.1058489E+001
3.179594952476909E+002	2.000000000000000E+000	3.1610117E+003	7.0518562E+001	5.2647709E+001	8.8003685E+001	-3.6744263E+001
3.184264768698704E+002	2.000000000000000E+000	2.1556899E+003	7.5363838E+001	7.0477859E+001	1.0318351E+002	-4.3081196E+001
3.188957370254793E+002	2.000000000000000E+000	1.4685898E+003	8.0706467E+001	9.5798790E+001	1.2526349E+002	-4.9887268E+001
3.193614698209494E+002	2.000000000000000E+000	1.0003202E+003	8.7546837E+001	1.3201508E+002	1.5840590E+002	-5.6449337E+001
6.210730606168217E+002	3.000000000000000E+000	1.0000186E+006	4.8059792E+001	-9.7045441E+000	4.9029804E+001	1.1416026E+001
6.215070837841195E+002	3.000000000000000E+000	6.8129269E+005	4.4304127E+001	-8.1105547E+000	4.5040390E+001	1.0374007E+001
6.219410813513969E+002	3.000000000000000E+000	4.6415716E+005	4.4157753E+001	-4.8545790E+000	4.4423801E+001	6.2737422E+000
6.223760745720647E+002	3.000000000000000E+000	3.1622997E+005	4.4041378E+001	-2.3384442E+000	4.4103416E+001	3.0393529E+000
6.228110847526987E+002	3.000000000000000E+000	2.1544686E+005	4.4109825E+001	-2.6958331E-001	4.4110649E+001	3.5016674E-001
6.232460768533929E+002	3.000000000000000E+000	1.4677664E+005	4.4414902E+001	1.6009641E+000	4.4443745E+001	-2.0643699E+000
6.236800765806402E+002	3.000000000000000E+000	1.0000371E+005	4.4973671E+001	3.3770087E+000	4.5100281E+001	-4.2941995E+000
6.241140700946271E+002	3.000000000000000E+000	6.8132047E+004	4.5770695E+001	5.2503877E+000	4.6070847E+001	-6.5438356E+000
6.245490704085969E+002	3.000000000000000E+000	4.6420355E+004	4.6741253E+001	7.3039689E+000	4.7308483E+001	-8.8814354E+000
6.249840849092870E+002	3.000000000000000E+000	3.1621139E+004	4.7936447E+001	9.9209051E+000	4.8952297E+001	-1.1692830E+001
6.254190818099014E+002	3.000000000000000E+000	2.1544684E+004	4.9619781E+001	1.3087757E+001	5.1316780E+001	-1.4775869E+001
6.258540767372760E+002	3.000000000000000E+000	1.4678594E+004	5.1678001E+001	1.7188137E+001	5.4461433E+001	-1.8397160E+001
6.262880725978466E+002	3.000000000000000E+000	1.0002226E+004	5.4374218E+001	2.2408285E+001	5.8810600E+001	-2.2397161E+001
6.266660898424743E+002	3.000000000000000E+000	6.8110674E+003	5.7705872E+001	2.9342722E+001	6.4737648E+001	-2.6952774E+001
6.271362674915363E+002	3.000000000000000E+000	4.6414854E+003	6.1182892E+001	3.8305283E+001	7.2184769E+001	-3.2049793E+001
6.276032906603868E+002	3.000000000000000E+000	3.1610117E+003	6.5201897E+001	5.0438732E+001	8.2433929E+001	-3.7724735E+001
6.280712750826133E+002	3.000000000000000E+000	2.1556899E+003	6.9640907E+001	6.7643967E+001	9.7085335E+001	-4.4166637E+001
6.285395368381578E+002	3.000000000000000E+000	1.4685898E+003	7.4857292E+001	9.2669067E+001	1.1912670E+002	-5.1069016E+001
6.290052609669729E+002	3.000000000000000E+000	1.0003202E+003	8.1659180E+001	1.2760907E+002	1.5150015E+002	-5.7384140E+001
9.314148694227042E+002	4.000000000000000E+000	1.0000186E+006	4.4642418E+001	-9.4889965E+000	4.5639748E+001	1.1999948E+001
9.318488673899847E+002	4.000000000000000E+000	6.8129269E+005	4.1221706E+001	-7.5250101E+000	4.1902924E+001	1.0345412E+001
9.322828675172350E+002	4.000000000000000E+000	4.6415716E+005	4.1311363E+001	-4.7688522E+000	4.1585701E+001	6.5848966E+000
9.325778618512268E+002	4.000000000000000E+000	3.1622997E+005	4.1211620E+001	-2.3700333E+000	4.1279713E+001	3.2913897E+000
9.330118648851931E+002	4.000000000000000E+000	2.1544686E+005	4.1286732E+001	-3.5488379E-001	4.1288258E+001	4.9247885E-001
9.334458692258049E+002	4.000000000000000E+000	1.4677664E+005	4.1631855E+001	1.4697154E+000	4.1657791E+001	-2.0218539E+000
9.338808675398177E+002	4.000000000000000E+000	1.0000371E+005	4.2143143E+001	3.2267370E+000	4.2266491E+001	-4.3783731E+000
9.343148687070643E+002	4.000000000000000E+000	6.8132047E+004	4.2859650E+001	5.0096846E+000	4.3151436E+001	-6.6668119E+000
9.347498528077558E+002	4.000000000000000E+000	4.6420355E+004	4.3843796E+001	6.9942341E+000	4.4398174E+001	-9.0638056E+000
9.351838539216842E+002	4.000000000000000E+000	3.1621139E+004	4.5016392E+001	9.4564962E+000	4.5998920E+001	-1.1863503E+001
9.356178723423218E+002	4.000000000000000E+000	2.1544684E+004	4.6581959E+001	1.2533719E+001	4.8238708E+001	-1.5059797E+001
9.360528599629470E+002	4.000000000000000E+000	1.4678594E+004	4.8599030E+001	1.6513159E+001	5.1327869E+001	-1.8766924E+001
9.364878773169767E+002	4.000000000000000E+000	1.0002226E+004	5.1194168E+001	2.1546108E+001	5.5543476E+001	-2.2824783E+001
9.368648836015200E+002	4.000000000000000E+000	6.8110674E+003	5.4128696E+001	2.8086510E+001	6.0981701E+001	-2.7424072E+001
9.373350598372563E+002	4.000000000000000E+000	4.6414854E+003	5.7749416E+001	3.6679329E+001	6.8413216E+001	-3.2421520E+001
9.378020494861048E+002	4.000000000000000E+000	3.1610117E+003	6.1369148E+001	4.8515442E+001	7.8229919E+001	-3.8328171E+001
9.382690845216202E+002	4.000000000000000E+000	2.1556899E+003	6.6012917E+001	6.5105148E+001	9.2716690E+001	-4.4603333E+001
9.387373133705114E+002	4.000000000000000E+000	1.4685898E+003	7.1182701E+001	8.8971436E+001	1.1394250E+002	-5.1338009E+001
9.392030523259818E+002	4.000000000000000E+000	1.0003202E+003	7.7603310E+001	1.2305487E+002	1.4548119E+002	-5.7762836E+001
1.241073648996098E+003	5.000000000000000E+000	1.0000186E+006	4.3983913E+001	-9.4329634E+000	4.4984058E+001	1.2104520E+001
1.241508667736751E+003	5.000000000000000E+000	6.8129269E+005	4.0353184E+001	-8.0460978E+000	4.1147530E+001	1.1276427E+001
1.241943657250755E+003	5.000000000000000E+000	4.6415716E+005	4.0575291E+001	-4.8676982E+000	4.0866230E+001	6.8409123E+000
1.242237656998012E+003	5.000000000000000E+000	3.1622997E+005	4.0500122E+001	-2.3999040E+000	4.0571163E+001	3.3911941E+000
1.242672654432041E+003	5.000000000000000E+000	2.1544686E+005	4.0561775E+001	-4.0414810E-001	4.0563789E+001	5.7086295E-001
1.243107663892704E+003	5.000000000000000E+000	1.4677664E+005	4.0846703E+001	1.3396354E+000	4.0868664E+001	-1.8784369E+000
1.243541656366637E+003	5.000000000000000E+000	1.0000371E+005	4.1353176E+001	3.0774610E+000	4.1467529E+001	-4.2560482E+000
1.243976671533979E+003	5.000000000000000E+000	6.8132047E+004	4.2095127E+001	4.7562351E+000	4.2362972E+001	-6.4463840E+000
1.244411664487940E+003	5.000000000000000E+000	4.6420355E+004	4.3062023E+001	6.7511153E+000	4.3588020E+001	-8.9101067E+000
1.244845660668594E+003	5.000000000000000E+000	3.1621139E+004	4.4278568E+001	9.1001062E+000	4.5204021E+001	-1.1613685E+001
1.245279654769198E+003	5.000000000000000E+000	2.1544684E+004	4.5732582E+001	1.2106764E+001	4.7307957E+001	-1.4827744E+001
1.245713656229811E+003	5.000000000000000E+000	1.4678594E+004	4.7646542E+001	1.5869938E+001	5.0219994E+001	-1.8421698E+001
1.246148669050453E+003	5.000000000000000E+000	1.0002226E+004	5.0148003E+001	2.0669868E+001	5.4240810E+001	-2.2400347E+001
1.246525676961726E+003	5.000000000000000E+000	6.8110674E+003	5.3089851E+001	2.6866627E+001	5.9500824E+001	-2.6842127E+001
1.246995885010758E+003	5.000000000000000E+000	4.6414854E+003	5.6343346E+001	3.5279140E+001	6.6476990E+001	-3.2052563E+001
1.247462840072942E+003	5.000000000000000E+000	3.1610117E+003	6.0018089E+001	4.6684261E+001	7.6036774E+001	-3.7877079E+001
1.247929841908452E+003	5.000000000000000E+000	2.1556899E+003	6.4103371E+001	6.2716076E+001	8.9680252E+001	-4.4373260E+001
1.248398105344007E+003	5.000000000000000E+000	1.4685898E+003	6.9321968E+001	8.5811592E+001	1.1031393E+002	-5.1067364E+001
1.248863880699486E+003	5.000000000000000E+000	1.0003202E+003	7.5158081E+001	1.1918662E+002	1.4090489E+002	-5.7764816E+001
1.550734448676259E+003	6.000000000000000E+000	1.0000186E+006	4.5921421E+001	-9.2450075E+000	4.6842793E+001	1.1382763E+001
1.551168439496862E+003	6.000000000000000E+000	6.8129269E+005	5.9558105E+001	-6.1560407E+000	5.9875412E+001	5.9012461E+000
1.551602454370790E+003	6.000000000000000E+000	4.6415716E+005	4.2156757E+001	-4.9319654E+000	4.2444275E+001	6.6727633E+000
1.551897442118177E+003	6.000000000000000E+000	3.1622997E+005	4.2051826E+001	-2.5020766E+000	4.2126198E+001	3.4050746E+000
1.552331440085458E+003	6.000000000000000E+000	2.1544686E+005	4.2112923E+001	-5.4313475E-001	4.2116425E+001	7.3890865E-001
1.552765447066078E+003	6.000000000000000E+000	1.4677664E+005	4.2357292E+001	1.1979760E+000	4.2374229E+001	-1.6200440E+000
1.553200443993410E+003	6.000000000000000E+000	1.0000371E+005	4.2906918E+001	2.9393792E+000	4.3007481E+001	-3.9189789E+000
1.553634441907314E+003	6.000000000000000E+000	6.8132047E+004	4.3610310E+001	4.7002063E+000	4.3862865E+001	-6.1514459E+000
1.554069459714665E+003	6.000000000000000E+000	4.6420355E+004	4.4538788E+001	6.5853338E+000	4.5022995E+001	-8.4105978E+000
1.554504452348658E+003	6.000000000000000E+000	3.1621139E+004	4.5712879E+001	8.8913164E+000	4.6569550E+001	-1.1006802E+001
1.554938451782597E+003	6.000000000000000E+000	2.1544684E+004	4.7143173E+001	1.1777212E+001	4.8591991E+001	-1.4026427E+001
1.555372450576542E+003	6.000000000000000E+000	1.4678594E+004	4.9065445E+001	1.5451889E+001	5.1441021E+001	-1.7480469E+001
1.555806449050520E+003	6.000000000000000E+000	1.0002226E+004	5.1482052E+001	2.0089417E+001	5.5262882E+001	-2.1316813E+001
1.556183477121725E+003	6.000000000000000E+000	6.8110674E+003	5.4313984E+001	2.6162832E+001	6.0286835E+001	-2.5719934E+001
1.556653652904119E+003	6.000000000000000E+000	4.6414854E+003	5.7524914E+001	3.4283993E+001	6.6966469E+001	-3.0794313E+001
1.557121655913012E+003	6.000000000000000E+000	3.1610117E+003	6.1122547E+001	4.5324825E+001	7.6094055E+001	-3.6558422E+001
1.557588632121857E+003	6.000000000000000E+000	2.1556899E+003	6.5064240E+001	6.1144657E+001	8.9286194E+001	-4.3221176E+001
1.558056887637416E+003	6.000000000000000E+000	1.4685898E+003	7.0042290E+001	8.3429245E+001	1.0893283E+002	-4.9985153E+001
1.558522659926224E+003	6.000000000000000E+000	1.0003202E+003	7.5907433E+001	1.1557616E+002	1.3827432E+002	-5.6704128E+001
1.860234254135430E+003	7.000000000000000E+000	1.0000186E+006	5.0298698E+001	-9.8517962E+000	5.1254433E+001	1.1081992E+001
1.860669247382757E+003	7.000000000000000E+000	6.8129269E+005	4.6342899E+001	-8.1836023E+000	4.7059917E+001	1.0014506E+001
1.861103248150059E+003	7.000000000000000E+000	4.6415716E+005	4.6479061E+001	-5.0248508E+000	4.6749889E+001	6.1702819E+000
1.861538240864029E+003	7.000000000000000E+000	3.1622997E+005	4.6305119E+001	-2.6338160E+000	4.6379963E+001	3.2554526E+000
1.861973251258052E+003	7.000000000000000E+000	2.1544686E+005	4.6311310E+001	-6.0672796E-001	4.6315285E+001	7.5059336E-001
1.862407233945298E+003	7.000000000000000E+000	1.4677664E+005	4.6570221E+001	1.2094429E+000	4.6585922E+001	-1.4876544E+000
1.862842234819342E+003	7.000000000000000E+000	1.0000371E+005	4.7042465E+001	2.8570719E+000	4.7129147E+001	-3.4755263E+000
1.863277253693290E+003	7.000000000000000E+000	6.8132047E+004	4.7766800E+001	4.5249243E+000	4.7980644E+001	-5.4114513E+000
1.863711243980593E+003	7.000000000000000E+000	4.6420355E+004	4.8634037E+001	6.4879918E+000	4.9064892E+001	-7.5986409E+000
1.864146234187909E+003	7.000000000000000E+000	3.1621139E+004	4.9815575E+001	8.7386618E+000	5.0576237E+001	-9.9496078E+000
1.864580249515217E+003	7.000000000000000E+000	2.1544684E+004	5.1233074E+001	1.1590551E+001	5.2527790E+001	-1.2747542E+001
1.865014255029120E+003	7.000000000000000E+000	1.4678594E+004	5.3139725E+001	1.5178498E+001	5.5264973E+001	-1.5941129E+001
1.865448254703108E+003	7.000000000000000E+000	1.0002226E+004	5.5407207E+001	1.9775305E+001	5.8830444E+001	-1.9641916E+001
1.865825260827638E+003	7.000000000000000E+000	6.8110674E+003	6.0197273E+001	2.6468206E+001	6.5759239E+001	-2.3734667E+001
1.866295436636712E+003	7.000000000000000E+000	4.6414854E+003	6.1450405E+001	3.3556740E+001	7.0015762E+001	-2.8638000E+001
1.866762442818894E+003	7.000000000000000E+000	3.1610117E+003	6.4805412E+001	4.4346027E+001	7.8525864E+001	-3.4383648E+001
1.867229470974409E+003	7.000000000000000E+000	2.1556899E+003	6.8819878E+001	5.9904778E+001	9.1240112E+001	-4.1038185E+001
1.867698727290001E+003	7.000000000000000E+000	1.4685898E+003	7.3730049E+001	8.1986198E+001	1.1026267E+002	-4.8035011E+001
1.868164430912155E+003	7.000000000000000E+000	1.0003202E+003	7.9504951E+001	1.1333102E+002	1.3843756E+002	-5.4949245E+001
2.170572034994402E+003	8.000000000000000E+000	1.0000186E+006	5.1054493E+001	-9.6935492E+000	5.1966587E+001	1.0750596E+001
2.171006029361713E+003	8.000000000000000E+000	6.8129269E+005	4.7412373E+001	-7.9706068E+000	4.8077682E+001	9.5428982E+000
2.171440030288970E+003	8.000000000000000E+000	4.6415716E+005	4.7257484E+001	-5.2989511E+000	4.7553642E+001	6.3978143E+000
2.171874029936298E+003	8.000000000000000E+000	3.1622997E+005	4.6759239E+001	-2.6251078E+000	4.6832870E+001	3.2132659E+000
2.172308045183570E+003	8.000000000000000E+000	2.1544686E+005	4.6811447E+001	-6.6679478E-001	4.6816196E+001	8.1608123E-001
2.172743033177539E+003	8.000000000000000E+000	1.4677664E+005	4.7036312E+001	1.1521903E+000	4.7050423E+001	-1.4032230E+000
2.173177049518185E+003	8.000000000000000E+000	1.0000371E+005	4.7496403E+001	2.8412163E+000	4.7581306E+001	-3.4233317E+000
2.173611042258766E+003	8.000000000000000E+000	6.8132047E+004	4.8129906E+001	4.6618176E+000	4.8355148E+001	-5.5323577E+000
2.174045029159373E+003	8.000000000000000E+000	4.6420355E+004	4.9231800E+001	6.4256430E+000	4.9649361E+001	-7.4361038E+000
2.174479048806679E+003	8.000000000000000E+000	3.1621139E+004	5.0194271E+001	8.6626730E+000	5.0936302E+001	-9.7918167E+000
2.174914045200654E+003	8.000000000000000E+000	2.1544684E+004	5.1747601E+001	1.1486752E+001	5.3007164E+001	-1.2515391E+001
2.175348044607934E+003	8.000000000000000E+000	1.4678594E+004	5.3615685E+001	1.5001644E+001	5.5674870E+001	-1.5631595E+001
2.175782040095219E+003	8.000000000000000E+000	1.0002226E+004	5.6237713E+001	1.9176392E+001	5.9417290E+001	-1.8828766E+001
2.176159068913112E+003	8.000000000000000E+000	6.8110674E+003	5.7820114E+001	2.5550791E+001	6.3213989E+001	-2.3840704E+001
2.176629224508848E+003	8.000000000000000E+000	4.6414854E+003	6.1650837E+001	3.3106140E+001	6.9977440E+001	-2.8235540E+001
2.177096231197698E+003	8.000000000000000E+000	3.1610117E+003	6.5246902E+001	4.4056446E+001	7.8728195E+001	-3.4028271E+001
2.177564231406592E+003	8.000000000000000E+000	2.1556899E+003	7.0653481E+001	5.9070293E+001	9.2093506E+001	-3.9897526E+001
2.178032488628814E+003	8.000000000000000E+000	1.4685898E+003	7.3268333E+001	8.1252663E+001	1.0940861E+002	-4.7957928E+001
2.178498241184294E+003	8.000000000000000E+000	1.0003202E+003	7.9790680E+001	1.1219569E+002	1.3767506E+002	-5.4580544E+001
2.480209823980200E+003	9.000000000000000E+000	1.0000186E+006	4.8881744E+001	-1.0317009E+001	4.9958637E+001	1.1917966E+001
2.480643823787424E+003	9.000000000000000E+000	6.8129269E+005	4.6647552E+001	-7.8516488E+000	4.7303726E+001	9.5543861E+000
2.481077823194704E+003	9.000000000000000E+000	4.6415716E+005	4.5796188E+001	-4.9749227E+000	4.6065613E+001	6.1998329E+000
2.481512838095397E+003	9.000000000000000E+000	3.1622997E+005	4.6056942E+001	-2.5904312E+000	4.6129734E+001	3.2191577E+000
2.481946823022648E+003	9.000000000000000E+000	2.1544686E+005	4.6075176E+001	-5.5617571E-001	4.6078533E+001	6.9158655E-001
2.482381821043353E+003	9.000000000000000E+000	1.4677664E+005	4.6252415E+001	1.1677855E+000	4.6267155E+001	-1.4463022E+000
2.482815839730640E+003	9.000000000000000E+000	1.0000371E+005	4.6798382E+001	2.8216858E+000	4.6883369E+001	-3.4504442E+000
2.483250834764593E+003	9.000000000000000E+000	6.8132047E+004	4.7267490E+001	4.4433770E+000	4.7475880E+001	-5.3703036E+000
2.483684837185225E+003	9.000000000000000E+000	4.6420355E+004	4.8324947E+001	6.3656311E+000	4.8742401E+001	-7.5041156E+000
2.484118827952509E+003	9.000000000000000E+000	3.1621139E+004	4.9543270E+001	8.6780462E+000	5.0297554E+001	-9.9351931E+000
